  can0  10607B01   [8]  2C FD 7F 3F 5E A9 17 A3
  can0  10607B01   [8]  BB 79 B3 B2 3B B4 A7 03
  can0  10607B01   [8]  2C FD 7F 3F 59 BE 17 A6
  can0  10607B01   [8]  BB FE B7 B2 3B 81 B2 06
  can0  10606F01   [3]  00 00 E5
  can0  10607001   [2]  00 F2
  can0  10607B01   [8]  2C FD 7F 3F 4C DB 17 A9
  can0  1067D132   [8]  80 3F E5 A2 4C 55 00 18
  can0  1067D132   [8]  00 00 00 00 00 1D 31 78
  can0  1067D332   [8]  00 00 00 00 00 00 00 AD
  can0  1067D332   [8]  00 00 00 00 00 00 00 0D
  can0  10607B01   [8]  2C FD 7F 3F 80 E5 17 B0
  can0  10607B01   [8]  BB FA B5 B2 3B DD A7 10
  can0  10606F01   [3]  00 00 EC
  can0  10607B01   [8]  00 00 00 00 00 00 00 B4
  can0  10607B01   [8]  00 00 00 00 00 00 00 B6
  can0  10607B01   [8]  00 00 00 00 00 00 00 16
  can0  10607B01   [8]  2A FD 7F 3F 43 2F 18 BA
  can0  10607B01   [8]  BB AA CC B2 3B 1D B3 1A
  can0  10607B01   [8]  2A FD 7F 3F D1 49 18 BD
  can0  10607B01   [8]  BB 7B DB B2 3B F1 AE 1D
  can0  10607B01   [5]  EA BB 65 AA 7D
  can0  10606F01   [3]  00 00 F3
  can0  0C63FD7C   [8]  00 00 00 00 00 00 00 B0
  can0  10607B01   [5]  EA BB 3A 12 60
  can0  0C63FE7C   [8]  00 00 C0 7F 00 00 C0 10
  can0  10607B01   [8]  2A FD 7F 3F 46 8F 18 A4
  can0  10607B01   [8]  BB 88 C1 B2 3B 6D D9 04
  can0  10606F01   [3]  00 00 F8
  can0  10607B01   [8]  00 00 00 00 00 00 00 A8
  can0  10606F01   [3]  00 00 F9
  can0  10607B01   [8]  2A FD 7F 3F 60 55 18 AA
  can0  1067D132   [8]  27 00 00 20 4E 00 00 BC
  can0  10607B01   [8]  2A FD 7F 3F CF 56 18 AE
  can0  10607B01   [8]  BB 20 E6 B2 3B D5 E5 0E
  can0  1067D132   [8]  6D B5 62 01 03 10 00 3C
  can0  10607B01   [8]  2A FD 7F 3F FF 68 18 B1
  can0  10607B01   [8]  BB 64 EB B2 3B 4D F8 11
  can0  10606F01   [3]  00 00 E0
  can0  10607B01   [8]  00 00 00 00 00 00 00 B5
  can0  10606F01   [3]  00 00 E1
  can0  10607B01   [8]  2A FD 7F 3F C4 33 18 B7
  can0  10607B01   [8]  BB 8E FE B2 3B 02 00 17
  can0  10606F01   [3]  00 00 E4
  can0  10607B01   [8]  2A FD 7F 3F 63 1F 18 BC
  can0  10606F01   [3]  00 00 E5
  can0  10607B01   [8]  2A FD 7F 3F E6 0E 18 BE
  can0  10607B01   [8]  00 00 00 00 00 00 00 A2
  can0  10607B01   [8]  00 00 00 00 00 00 00 02
  can0  10606F01   [3]  00 00 E9
  can0  10607B01   [8]  2A FD 7F 3F 58 D4 17 A5
  can0  10607B01   [8]  BB F5 E7 B2 3B F3 09 05
  can0  10606F01   [3]  00 00 EA
  can0  10607B01   [8]  2A FD 7F 3F 4F CA 17 A9
  can0  10607B01   [8]  BB 3E F5 B2 3B 15 04 09
  can0  10606F01   [3]  00 00 ED
  can0  10607B01   [8]  BB 53 F4 B2 3B C0 F5 0B
  can0  10607B01   [8]  00 00 00 00 00 00 00 0C
  can0  10606F01   [3]  00 00 EE
  can0  1067D132   [8]  DC 37 00 00 00 01 01 00
  can0  1067D132   [8]  00 00 00 80 3F 00 00 20
  can0  10606F01   [3]  00 00 F2
  can0  10607B01   [8]  00 00 00 00 00 00 00 B6
  can0  10607B01   [8]  00 00 00 00 00 00 00 16
  can0  10607B01   [5]  00 00 6A 0A 76
  can0  10606F01   [3]  00 00 F5
  can0  10606F01   [3]  00 00 F7
  can0  10607B01   [8]  2A FD 7F 3F CD DF 17 B9
  can0  10607B01   [8]  2A FD 7F 3F 5F 08 18 BC
  can0  10607B01   [8]  BB D2 EC B2 3B 4C D1 1C
  can0  10607B01   [8]  2A FD 7F 3F DD 17 18 BF
  can0  10607B01   [8]  BB 59 E4 B2 3B CD E3 1F
  can0  10606F01   [3]  00 00 FD
  can0  10607B01   [8]  2A FD 7F 3F EB 0F 18 A3
  can0  10607B01   [8]  BB CC F0 B2 3B FD D0 03
  can0  10606F01   [3]  00 00 FE
  can0  10607B01   [8]  2A FD 7F 3F 00 04 18 A5
  can0  10607B01   [8]  2A FD 7F 3F 1B 06 18 A8
  can0  10607B01   [8]  BB 9D 04 B3 3B 3A C3 08
  can0  10607B01   [5]  EA BB CA BB 68
  can0  10606F01   [3]  00 00 E3
  can0  10607B01   [8]  2C FD 7F 3F 78 05 18 AC
  can0  10607B01   [8]  BB C7 05 B3 3B 76 9C 0C
  can0  1067D132   [3]  A1 8F 64
  can0  1067D132   [8]  73 00 01 0F 27 00 00 A5
  can0  1067D132   [8]  F8 4A 23 00 00 00 00 05
  can0  1067D132   [8]  00 00 00 00 00 BA 22 25
  can0  10607B01   [8]  2C FD 7F 3F 88 2C 18 B2
  can0  10607B01   [8]  BB C3 F6 B2 3B 29 8F 12
  can0  10606F01   [3]  00 00 E9
  can0  10607B01   [8]  00 00 00 00 00 00 00 B6
  can0  10607B01   [8]  2B FD 7F 3F 20 29 18 B9
  can0  10607B01   [8]  BB 5A F3 B2 3B 87 C0 19
  can0  10607B01   [8]  2B FD 7F 3F F9 29 18 BC
  can0  10607B01   [8]  BB 74 02 B3 3B 86 BD 1C
  can0  10607B01   [5]  EA BB A9 82 7C
  can0  107D557C   [8]  14 00 00 00 02 00 0E F1
  can0  10606F01   [3]  00 00 EF
  can0  10606F01   [3]  00 00 F1
  can0  10607B01   [8]  29 FD 7F 3F 57 56 18 A3
  can0  10607B01   [8]  2B FD 7F 3F 18 20 18 A4
  can0  10606F01   [3]  00 00 F2
  can0  10607B01   [8]  29 FD 7F 3F 4F 05 18 A5
  can0  10606F01   [3]  00 00 F5
  can0  10607B01   [8]  00 00 00 00 00 00 00 A9
  can0  10607B01   [8]  00 00 00 00 00 00 00 09
  can0  10606F01   [3]  00 00 F7
  can0  10607B01   [8]  00 00 00 00 00 00 00 AC
  can0  1067D132   [8]  00 00 80 3F E5 A2 4C 08
  can0  1067D132   [8]  55 00 00 00 00 00 00 28
  can0  10607B01   [8]  BB B4 01 B3 3B 7A 05 0F
  can0  1067D132   [8]  00 00 E5 A2 4C 55 00 08
  can0  10607B01   [8]  2B FD 7F 3F C0 18 18 B1
  can0  10607B01   [5]  EA BB 72 51 71
  can0  10606F01   [3]  00 00 FB
  can0  10607B01   [8]  00 00 00 00 00 00 00 B5
  can0  10606F01   [3]  00 00 FD
  can0  10607B01   [8]  29 FD 7F 3F 11 D1 17 B8
  can0  10607B01   [8]  BB 8B 12 B3 3B 36 E2 18
  can0  10606F01   [3]  00 00 E1
  can0  10607B01   [8]  00 00 00 00 00 00 00 BC
  can0  10606F01   [3]  00 00 E3
  can0  10607B01   [8]  00 00 00 00 00 00 00 BF
  can0  10607B01   [8]  00 00 00 00 00 00 00 A2
  can0  10607B01   [8]  00 00 00 00 00 00 00 02
  can0  10607B01   [5]  00 00 6A 0A 62
  can0  10606F01   [3]  00 00 E5
  can0  10607B01   [8]  29 FD 7F 3F 6F F1 17 A3
  can0  10606F01   [3]  00 00 E7
  can0  10607B01   [8]  29 FD 7F 3F F0 F9 17 A6
  can0  107D557F   [8]  68 06 00 00 00 00 00 F0
  can0  10606F01   [3]  00 00 E9
  can0  10607B01   [8]  00 00 00 00 00 00 00 AC
  can0  10607B01   [8]  00 00 00 00 00 00 00 0C
  can0  10607B01   [5]  00 00 6A 0A 6C
  can0  10606F01   [3]  00 00 EB
  can0  1067D132   [8]  00 00 00 00 3B 40 B5 0D
  can0  1067D132   [6]  62 01 03 74 D9 6D
  can0  10607B01   [8]  00 00 00 00 00 00 00 B2
  can0  10607B01   [8]  00 00 00 00 00 00 00 12
  can0  10607B01   [8]  00 00 00 00 00 00 00 B5
  can0  10607B01   [8]  00 00 00 00 00 00 00 15
  can0  10607B01   [5]  00 00 6A 0A 75
  can0  10606F01   [3]  00 00 F1
  can0  0C63FF7C   [8]  00 00 00 00 00 00 00 B9
  can0  10606F01   [3]  00 00 F3
  can0  10606F01   [3]  00 00 F5
  can0  10607B01   [8]  00 00 00 00 00 00 00 BF
  can0  10607B01   [8]  00 00 00 00 00 00 00 1F
  can0  10607B01   [5]  00 00 6A 0A 7F
  can0  10606F01   [3]  00 00 F7
  can0  10606F01   [3]  00 00 F9
  can0  10607B01   [8]  2B FD 7F 3F DC 8A 18 A3
  can0  10606F01   [3]  00 00 FB
  can0  10607B01   [8]  2B FD 7F 3F 46 99 18 A6
  can0  10607B01   [8]  00 00 00 00 00 00 00 A8
  can0  10607B01   [8]  00 00 00 00 00 00 00 08
  can0  10607B01   [5]  00 00 6A 0A 68
  can0  10606F01   [3]  00 00 FF
  can0  10607B01   [8]  2B FD 7F 3F 0F 94 18 AC
  can0  1067D132   [8]  BA 37 B5 62 01 36 40 31
  can0  1067D132   [8]  00 80 3F E5 A2 4C 55 11
  can0  1067D132   [8]  00 00 00 00 00 00 00 31
  can0  10607B01   [8]  2B FD 7F 3F 0D B7 18 B2
  can0  10607B01   [8]  BB F5 ED B2 3B 19 C9 12
  can0  10606F01   [3]  00 00 E5
  can0  10607B01   [8]  2B FD 7F 3F 69 AD 18 B5
  can0  10606F01   [3]  00 00 E7
  can0  10607B01   [8]  2B FD 7F 3F B8 C0 18 B8
  can0  10607B01   [8]  BB F1 EC B2 3B CE C2 18
  can0  10607B01   [8]  2B FD 7F 3F 8E B3 18 BB
  can0  10607B01   [8]  BB D7 F7 B2 3B 78 C7 1B
  can0  10606F01   [3]  00 00 EB
  can0  10607B01   [8]  29 FD 7F 3F 27 B9 18 BF
  can0  10607B01   [8]  BB 78 FE B2 3B 29 E1 1F
  can0  10606F01   [3]  00 00 ED
  can0  10607B01   [8]  2B FD 7F 3F D6 98 18 A2
  can0  10607B01   [8]  BB 2C F6 B2 3B 57 DF 02
  can0  10607B01   [8]  29 FD 7F 3F CF 80 18 A5
  can0  10607B01   [8]  BB B7 E7 B2 3B 20 F8 05
  can0  10607B01   [5]  EA BB 3E 40 65
  can0  10607B01   [8]  29 FD 7F 3F 70 73 18 A8
  can0  10607B01   [8]  BB C7 EA B2 3B AA FD 08
  can0  10607B01   [8]  29 FD 7F 3F BF B5 18 AC
  can0  10607B01   [8]  BB FD FE B2 3B 8C 0B 0C
  can0  1067D132   [8]  01 0F 27 00 00 F8 4A 15
  can0  1067D132   [8]  23 00 00 00 00 00 00 35
  can0  10607B01   [5]  EB BB BD 2F 6F
  can0  1067D132   [8]  00 00 40 00 08 00 00 36
  can0  10607001   [2]  00 F9
  can0  10607B01   [8]  29 FD 7F 3F 5A CC 18 B2
  can0  10606F01   [3]  00 00 F9
  can0  10607B01   [8]  29 FD 7F 3F ED E1 18 B5
  can0  10607B01   [8]  2B FD 7F 3F E2 A7 18 B8
  can0  10607B01   [8]  BB 5F 9D B2 3B 89 29 18
  can0  10606F01   [3]  00 00 FD
  can0  10607B01   [8]  00 00 00 00 00 00 00 BC
  can0  0C63FD7C   [8]  00 00 00 00 00 00 00 BD
  can0  10606F01   [3]  00 00 FE
  can0  10607B01   [8]  29 FD 7F 3F 40 BD 18 BE
  can0  10607B01   [8]  2B FD 7F 3F 9D 98 18 A1
  can0  10607B01   [8]  BB 35 77 B2 3B 24 2E 01
  can0  10607B01   [5]  EB BB A5 31 61
  can0  10606F01   [3]  00 00 E2
  can0  10607B01   [8]  2B FD 7F 3F C9 92 18 A4
  can0  10607B01   [8]  00 00 00 00 00 00 00 A8
  can0  10607B01   [8]  00 00 00 00 00 00 00 08
  can0  10607B01   [8]  00 00 00 00 00 00 00 0A
  can0  10607B01   [5]  00 00 6A 0A 6A
  can0  10607B01   [8]  2B FD 7F 3F 64 B7 18 AB
  can0  1067D132   [8]  3A 00 00 00 40 00 08 39
  can0  1067D132   [8]  00 00 00 00 48 3A 00 19
  can0  1067D132   [8]  00 4C E9 B5 62 01 36 39
  can0  10607B01   [8]  2B FD 7F 3F 7E 87 18 AE
  can0  10606F01   [3]  00 00 EA
  can0  10607B01   [8]  2B FD 7F 3F 3B 89 18 B1
  can0  10607B01   [8]  00 00 00 00 00 00 00 B5
  can0  10607B01   [8]  00 00 00 00 00 00 00 15
  can0  10607B01   [8]  2B FD 7F 3F A4 D5 18 B8
  can0  10607B01   [8]  BB D4 64 B2 3B 18 14 18
  can0  12603FB2   [8]  00 00 00 00 00 00 00 A8
  can0  12603FB2   [8]  02 01 21 00 75 61 76 08
  can0  12603FB2   [8]  63 61 6E 2E 70 72 69 28
  can0  12603FB2   [8]  6D 69 74 69 76 65 2E 08
  can0  0C63FD7C   [4]  00 31 3E 5F
  can0  12607FB2   [8]  62 61 78 2E 67 70 73 24
  can0  0C63FF7C   [8]  00 00 00 00 00 00 00 BF
  can0  10607B01   [8]  2B FD 7F 3F 61 84 18 BF
  can0  10606F01   [3]  00 00 F5
  can0  10607B01   [8]  BB A7 6E B2 3B F6 17 04
  can0  10607B01   [8]  2B FD 7F 3F B1 9F 18 A5
  can0  10607B01   [8]  00 00 00 00 00 00 00 A8
  can0  10607B01   [8]  00 00 00 00 00 00 00 08
  can0  10606F01   [3]  00 00 FA
  can0  10606F01   [3]  00 00 FB
  can0  10607B01   [8]  2B FD 7F 3F B1 9F 18 AB
  can0  1067D132   [8]  A8 12 01 0F 27 00 00 01
  can0  1067D132   [8]  F8 4A 23 00 00 00 00 21
  can0  1067D132   [8]  00 00 00 00 00 A3 69 01
  can0  10607B01   [5]  EB BB 59 28 70
  can0  10607B01   [8]  00 00 00 00 00 00 00 B1
  can0  10607B01   [8]  00 00 00 00 00 00 00 11
  can0  10607B01   [8]  00 00 00 00 00 00 00 B4
  can0  10607B01   [8]  00 00 00 00 00 00 00 14
  can0  10606F01   [3]  00 00 E3
  can0  10607B01   [8]  00 00 00 00 00 00 00 BB
  can0  10607B01   [8]  00 00 00 00 00 00 00 1B
  can0  10607B01   [8]  2B FD 7F 3F 07 0A 19 BD
  can0  10606F01   [3]  00 00 E7
  can0  10607B01   [8]  2B FD 7F 3F 0E F9 18 BF
  can0  10607B01   [8]  2B FD 7F 3F 1A E5 18 A2
  can0  10607B01   [8]  BB 34 8D B2 3B 41 CF 02
  can0  10607B01   [8]  2B FD 7F 3F 39 D6 18 A5
  can0  10607B01   [8]  BB E2 83 B2 3B 03 C0 05
  can0  10606F01   [3]  00 00 ED
  can0  10607B01   [8]  2D FD 7F 3F 60 F0 18 A9
  can0  10607B01   [8]  BB DB 76 B2 3B EA A4 09
  can0  10606F01   [3]  00 00 EF
  can0  10607B01   [8]  2D FD 7F 3F FD D5 18 AC
  can0  10607B01   [8]  BB 9B 71 B2 3B CC 99 0C
  can0  1067D132   [8]  01 36 40 00 FC 3A 00 04
  can0  1067D132   [8]  00 00 01 01 00 00 00 24
  can0  1067D132   [8]  80 3F 00 00 80 3F E5 04
  can0  10607B01   [8]  2D FD 7F 3F 5C C2 18 AF
  can0  10607B01   [8]  00 00 00 00 00 00 00 B2
  can0  10607B01   [8]  00 00 00 00 00 00 00 12
  can0  10606F01   [3]  00 00 F3
  can0  10606F01   [3]  00 00 F5
  can0  10607B01   [8]  2D FD 7F 3F 22 9A 18 B7
  can0  10606F01   [3]  00 00 F6
  can0  10606F01   [3]  00 00 F9
  can0  10607B01   [8]  00 00 00 00 00 00 00 BC
  can0  10607B01   [8]  2D FD 7F 3F C1 B5 18 BD
  can0  10607B01   [8]  2D FD 7F 3F 47 A3 18 BF
  can0  10607B01   [8]  BB AB 5E B2 3B EB 97 1F
  can0  10607B01   [8]  2D FD 7F 3F 8A AA 18 A2
  can0  10607B01   [8]  BB A6 6A B2 3B C9 79 02
  can0  10606F01   [3]  00 00 FF
  can0  10607B01   [8]  00 00 00 00 00 00 00 A6
  can0  10607B01   [8]  00 00 00 00 00 00 00 06
  can0  10606F01   [3]  00 00 E1
  can0  10607B01   [8]  00 00 00 00 00 00 00 A9
  can0  10607B01   [8]  2D FD 7F 3F EC B5 18 AC
  can0  10607B01   [8]  BB 51 94 B2 3B 6D 5E 0C
  can0  10607B01   [5]  EA BB 57 D3 6C
  can0  1067D132   [8]  00 00 00 00 00 20 4E 08
  can0  10607B01   [8]  BB 41 86 B2 3B C0 5D 0F
  can0  1067D132   [8]  27 00 00 F8 4A 23 00 08
  can0  10607B01   [8]  00 00 00 00 00 00 00 B2
  can0  10607B01   [8]  00 00 00 00 00 00 00 12
  can0  10606F01   [3]  00 00 E8
  can0  10607001   [2]  00 FD
  can0  10606F01   [3]  00 00 E9
  can0  10607B01   [8]  00 00 00 00 00 00 00 B9
  can0  10607B01   [8]  00 00 00 00 00 00 00 19
  can0  10606F01   [3]  00 00 EC
  can0  10607B01   [8]  00 00 00 00 00 00 00 BC
  can0  10606F01   [3]  00 00 EE
  can0  10607B01   [8]  2D FD 7F 3F 43 A2 18 BF
  can0  10607B01   [8]  BB A0 A5 B2 3B 9D 40 1F
  can0  10607B01   [8]  2D FD 7F 3F C0 A7 18 A0
  can0  0C63FE7C   [8]  7F 00 00 C0 7F 00 00 25
  can0  0C63FF7C   [8]  00 00 00 00 00 00 00 A5
  can0  0C63FF7C   [8]  00 00 00 00 7E C9 84 05
  can0  10607B01   [8]  2D FD 7F 3F 75 92 18 A3
  can0  10606F01   [3]  00 00 F2
  can0  10606F01   [3]  00 00 F4
  can0  10607B01   [8]  00 00 00 00 00 00 00 A8
  can0  10607B01   [8]  00 00 00 00 00 00 00 08
  can0  10606F01   [3]  00 00 F5
  can0  10607B01   [8]  2D FD 7F 3F DA BE 18 AC
  can0  1067D132   [8]  00 00 40 00 08 00 00 0B
  can0  1067D132   [8]  00 00 D8 3B 00 00 6E 2B
  can0  10606F01   [3]  00 00 FA
  can0  10607B01   [8]  00 00 00 00 00 00 00 B1
  can0  10607001   [2]  00 FE
  can0  10607B01   [8]  2D FD 7F 3F B0 F6 18 B5
  can0  10607B01   [8]  BB A1 F5 B2 3B A0 22 15
  can0  10606F01   [3]  00 00 FE
  can0  10607B01   [8]  2B FD 7F 3F AD 20 19 B8
  can0  10606F01   [3]  00 00 E0
  can0  10607B01   [8]  00 00 00 00 00 00 00 BB
  can0  10607B01   [8]  2D FD 7F 3F AF EF 18 BF
  can0  10607B01   [8]  BB C6 09 B3 3B 63 0F 1F
  can0  10607B01   [5]  EA BB 63 78 7F
  can0  10606F01   [3]  00 00 E4
  can0  10607B01   [8]  2B FD 7F 3F 16 1C 19 A2
  can0  10606F01   [3]  00 00 E6
  can0  10607B01   [8]  00 00 00 00 00 00 00 A5
  can0  10607B01   [8]  00 00 00 00 00 00 00 05
  can0  10607B01   [5]  00 00 6A 0A 65
  can0  10606F01   [3]  00 00 E7
  can0  10607B01   [8]  2B FD 7F 3F 69 DF 18 A9
  can0  10607B01   [8]  BB 92 1B B3 3B 35 46 09
  can0  10607B01   [8]  2D FD 7F 3F AE BC 18 AC
  can0  10607B01   [8]  BB 98 12 B3 3B 28 1A 0C
  can0  1067D132   [8]  00 00 40 00 08 00 00 30
  can0  1067D132   [8]  00 00 3C 3C 00 00 38 10
  can0  1067D132   [8]  1D B5 62 01 36 40 00 30
  can0  10607B01   [8]  2D FD 7F 3F 7D E2 18 B2
  can0  10607B01   [8]  BB E2 12 B3 3B FC 0D 12
  can0  10606F01   [3]  00 00 F0
  can0  10607B01   [8]  2B FD 7F 3F 3C D4 18 B5
  can0  10606F01   [3]  00 00 F2
  can0  10607B01   [8]  2D FD 7F 3F 99 EC 18 B8
  can0  10607B01   [8]  BB 39 32 B3 3B D0 06 18
  can0  10607B01   [8]  2D FD 7F 3F 1F ED 18 BC
  can0  10607B01   [8]  BB 69 25 B3 3B 87 FF 1C
  can0  107D557C   [8]  15 00 00 00 02 00 0E F2
  can0  10606F01   [3]  00 00 F6
  can0  10607B01   [8]  2B FD 7F 3F D1 13 19 BF
  can0  10606F01   [3]  00 00 F8
  can0  10607B01   [8]  2B FD 7F 3F 6E 20 19 A2
  can0  10606F01   [3]  00 00 FA
  can0  10607B01   [8]  2B FD 7F 3F 5E 2A 19 A5
  can0  0C63FD7C   [8]  00 00 00 00 00 00 00 A9
  can0  10607B01   [8]  2D FD 7F 3F 37 04 19 A8
  can0  10607B01   [8]  BB 7F 4E B3 3B 11 13 08
  can0  10606F01   [3]  00 00 FE
  can0  10607B01   [8]  2B FD 7F 3F EE F0 18 AB
  can0  10607B01   [8]  BB 6B 43 B3 3B BD 34 0B
  can0  1067D132   [8]  00 00 00 01 01 00 00 33
  can0  10607B01   [8]  BB 88 4D B3 3B 6B 4A 0E
  can0  1067D132   [8]  4C 55 00 00 00 00 E5 33
  can0  10606F01   [3]  00 00 E2
  can0  10607B01   [8]  2B FD 7F 3F 93 FD 18 B2
  can0  10606F01   [3]  00 00 E4
  can0  10607B01   [8]  2B FD 7F 3F D5 FA 18 B5
  can0  10607B01   [8]  BB 76 35 B3 3B 72 7C 15
  can0  10606F01   [3]  00 00 E6
  can0  10607001   [2]  00 E0
  can0  10607B01   [8]  00 00 00 00 00 00 00 BB
  can0  10607B01   [8]  00 00 00 00 00 00 00 1B
  can0  10606F01   [3]  00 00 EA
  can0  10607B01   [8]  2B FD 7F 3F 92 A6 18 BE
  can0  10607B01   [8]  BB EF 37 B3 3B 29 87 1E
  can0  10607B01   [8]  00 00 00 00 00 00 00 A2
  can0  10607B01   [8]  00 00 00 00 00 00 00 02
  can0  10606F01   [3]  00 00 EE
  can0  10607B01   [8]  2B FD 7F 3F 07 9F 18 A4
  can0  10607B01   [8]  BB 08 30 B3 3B 5B 8F 04
  can0  10606F01   [3]  00 00 F0
  can0  10607B01   [8]  2B FD 7F 3F 53 91 18 A8
  can0  10606F01   [3]  00 00 F2
  can0  10607B01   [8]  2B FD 7F 3F 53 A5 18 AB
  can0  1067D132   [8]  00 40 00 08 00 00 00 17
  can0  1067D132   [8]  00 04 3D 00 00 C9 C0 37
  can0  1067D132   [8]  B5 62 01 36 40 00 F0 17
  can0  1067D132   [8]  3C 00 00 00 01 01 00 37
  can0  1C7D567F   [8]  01 00 00 00 02 40 00 35
  can0  10607B01   [8]  2A FD 7F 3F 93 D4 18 B1
  can0  10607B01   [8]  BB 0F 61 B3 3B 45 A0 11
  can0  10607B01   [5]  EA BB FE 1E 74
  can0  10607B01   [8]  2A FD 7F 3F 2E A9 18 B5
  can0  10607B01   [8]  BB DC 46 B3 3B E9 AD 15
  can0  10606F01   [3]  00 00 FA
  can0  10607B01   [8]  2A FD 7F 3F AB AB 18 B7
  can0  10606F01   [3]  00 00 FC
  can0  10607B01   [8]  00 00 00 00 00 00 00 BB
  can0  10607B01   [8]  2A FD 7F 3F 16 AE 18 BD
  can0  10607B01   [8]  BB 7D 2A B3 3B 75 91 1D
  can0  10607B01   [8]  2A FD 7F 3F 91 A1 18 A1
  can0  10607B01   [8]  BB 4F 34 B3 3B F9 85 01
  can0  10607B01   [5]  EA BB 10 8E 61
  can0  10607B01   [8]  2A FD 7F 3F 6A AF 18 A3
  can0  10607B01   [8]  BB 7C 36 B3 3B A0 94 03
  can0  10607B01   [8]  2A FD 7F 3F AE C0 18 A7
  can0  10607B01   [8]  BB A1 2F B3 3B E2 A2 07
  can0  10607B01   [5]  EA BB F8 E9 67
  can0  10606F01   [3]  00 00 E6
  can0  10607B01   [8]  2A FD 7F 3F BD C5 18 AA
  can0  1067D132   [8]  36 40 00 54 3D 00 00 1B
  can0  1067D132   [8]  00 01 01 00 00 00 80 3B
  can0  10606F01   [3]  00 00 E8
  can0  10607B01   [8]  00 00 00 00 00 00 00 0D
  can0  1067D132   [8]  00 00 00 00 E5 A2 4C 3B
  can0  10607B01   [8]  00 00 00 00 00 00 00 B0
  can0  10607B01   [8]  2A FD 7F 3F 6D E5 18 B1
  can0  10607B01   [8]  2A FD 7F 3F AD BF 18 B4
  can0  10607B01   [8]  BB 5D 0C B3 3B 96 B0 14
  can0  10606F01   [3]  00 00 EE
  can0  10607B01   [8]  00 00 00 00 00 00 00 B7
  can0  0C63FE7C   [8]  00 00 00 00 00 00 00 AE
  can0  0C63FE7C   [8]  00 00 C0 7F 00 00 C0 0E
  can0  0C63FE7C   [8]  7F 00 00 C0 7F 00 00 2E
  can0  10607B01   [8]  2A FD 7F 3F CF 8E 18 BB
  can0  10606F01   [3]  00 00 F2
  can0  10606F01   [3]  00 00 F5
  can0  10607B01   [8]  2B FD 7F 3F AC 75 18 A0
  can0  10607B01   [8]  2B FD 7F 3F 61 82 18 A4
  can0  10607B01   [8]  BB 34 1E B3 3B 71 9E 04
  can0  10606F01   [3]  00 00 F9
  can0  10607B01   [8]  2B FD 7F 3F 4C 69 18 A7
  can0  10607B01   [8]  BB 3F 1E B3 3B E0 A1 07
  can0  10606F01   [3]  00 00 FB
  can0  10607B01   [8]  2B FD 7F 3F 61 82 18 A9
  can0  1067D132   [8]  00 00 40 00 08 00 00 3F
  can0  10607B01   [5]  00 00 6A 0A 6C
  can0  1067D132   [8]  6F B5 62 01 36 40 00 3F
  can0  1067D132   [8]  B8 3D 00 00 00 01 01 1F
  can0  10606F01   [3]  00 00 FF
  can0  10607B01   [8]  2B FD 7F 3F 8A 7C 18 AF
  can0  10606F01   [3]  00 00 E1
  can0  10607B01   [8]  2B FD 7F 3F 80 86 18 B2
  can0  10607B01   [8]  00 00 00 00 00 00 00 B6
  can0  10607B01   [8]  00 00 00 00 00 00 00 16
  can0  10607B01   [8]  2B FD 7F 3F BC 8F 18 B9
  can0  10607B01   [8]  BB 78 0B B3 3B 7D 99 19
  can0  10606F01   [3]  00 00 E6
  can0  10606F01   [3]  00 00 E7
  can0  10607B01   [8]  2B FD 7F 3F 09 6D 18 BC
  can0  10607B01   [8]  00 00 00 00 00 00 00 A0
  can0  10607B01   [8]  00 00 00 00 00 00 00 00
  can0  10607B01   [5]  00 00 6A 0A 60
  can0  10606F01   [3]  00 00 EB
  can0  10607B01   [8]  2B FD 7F 3F 28 68 18 A3
  can0  10606F01   [3]  00 00 ED
  can0  10607B01   [8]  2B FD 7F 3F 8F 7F 18 A6
  can0  10607B01   [8]  2B FD 7F 3F CB 91 18 A7
  can0  10607B01   [8]  00 00 00 00 00 00 00 A9
  can0  10607B01   [8]  00 00 00 00 00 00 00 09
  can0  1067D132   [8]  36 40 00 1C 3E 00 00 02
  can0  0C63FF7C   [4]  40 50 0C 71
  can0  1067D132   [8]  3F 00 00 80 3F E5 A2 02
  can0  1067D132   [8]  4C 55 00 00 00 00 00 22
  can0  10606F01   [3]  00 00 F3
  can0  10607B01   [8]  2D FD 7F 3F 27 A1 18 AF
  can0  10607B01   [8]  2D FD 7F 3F 66 E7 18 B3
  can0  10607B01   [8]  BB 59 D0 B2 3B F7 2B 13
  can0  10607B01   [5]  EA BB CE 57 73
  can0  10606F01   [3]  00 00 F7
  can0  10607B01   [8]  00 00 00 00 00 00 00 B5
  can0  10606F01   [3]  00 00 F9
  can0  10607B01   [8]  2D FD 7F 3F 50 26 19 B8
  can0  0C63FE7C   [8]  00 00 00 00 00 00 00 B2
  can0  0C63FE7C   [8]  7F 00 00 C0 7F 00 00 32
  can0  0C63FF7C   [8]  00 00 00 00 00 00 00 B2
  can0  12607FB2   [8]  1E 75 61 76 63 61 6E A5
  can0  10606F01   [3]  00 00 FD
  can0  10607B01   [8]  00 00 00 00 00 00 00 BF
  can0  10606F01   [3]  00 00 FF
  can0  10607B01   [8]  00 00 00 00 00 00 00 A2
  can0  10607B01   [8]  2D FD 7F 3F AB F6 18 A6
  can0  10607B01   [8]  BB 50 C4 B2 3B 94 47 06
  can0  10607B01   [5]  EA BB A2 7B 66
  can0  10607B01   [8]  00 00 00 00 00 00 00 A9
  can0  10607B01   [8]  00 00 00 00 00 00 00 09
  can0  1067D132   [8]  00 00 00 00 00 00 00 27
  can0  1067D132   [8]  00 00 00 00 20 4E 00 07
  can0  1067D132   [8]  00 80 A8 12 01 0F 27 27
  can0  1067D132   [8]  00 00 F8 4A 23 00 00 07
  can0  10607B01   [8]  2D FD 7F 3F 2D FA 18 AF
  can0  10607B01   [8]  BB 19 B5 B2 3B 70 64 0F
  can0  12603FB2   [8]  00 00 00 00 00 00 00 AA
  can0  12603FB2   [8]  02 01 1B 00 64 73 30 0A
  can0  10606F01   [3]  00 00 EB
  can0  10607B01   [8]  00 00 00 00 00 00 00 B4
  can0  10607B01   [8]  00 00 00 00 00 00 00 17
  can0  10607B01   [8]  2D FD 7F 3F FC 1C 19 B8
  can0  10607B01   [8]  BB 85 BB B2 3B EE 47 18
  can0  10606F01   [3]  00 00 EF
  can0  0C63FD7C   [8]  00 00 00 00 00 00 00 B4
  can0  10606F01   [3]  00 00 F1
  can0  10607B01   [8]  2B FD 7F 3F 7F 57 19 BE
  can0  10606F01   [3]  00 00 F3
  can0  10607B01   [8]  2B FD 7F 3F 28 60 19 A2
  can0  10607B01   [8]  BB 8E E4 B2 3B E4 64 02
  can0  10606F01   [3]  00 00 F5
  can0  10607B01   [8]  2B FD 7F 3F D2 72 19 A5
  can0  10606F01   [3]  00 00 F7
  can0  10607B01   [8]  2B FD 7F 3F 73 5B 19 A8
  can0  10607B01   [8]  BB 87 D7 B2 3B 1D 8E 08
  can0  1067D132   [8]  B4 F1 B5 62 01 36 40 2B
  can0  1067D132   [8]  00 E4 3E 00 00 00 01 0B
  can0  10606F01   [3]  00 00 FB
  can0  10607B01   [8]  2B FD 7F 3F 0B 84 19 AE
  can0  10606F01   [3]  00 00 FD
  can0  10607B01   [8]  2B FD 7F 3F A7 B2 19 B1
  can0  10607B01   [8]  BB 00 C6 B2 3B 95 D9 11
  can0  10607B01   [8]  29 FD 7F 3F B5 A8 19 B5
  can0  10607B01   [8]  BB 26 D3 B2 3B 37 D9 15
  can0  10606F01   [3]  00 00 E1
  can0  10607001   [2]  00 E6
  can0  10606F01   [3]  00 00 E3
  can0  10607B01   [8]  29 FD 7F 3F A5 EC 19 BB
  can0  10607B01   [8]  BB 7B B8 B2 3B F1 DA 1B
  can0  10607B01   [8]  29 FD 7F 3F 0B BC 19 BD
  can0  10607B01   [8]  BB 72 B4 B2 3B 99 E2 1D
  can0  10607B01   [5]  EA BB D0 40 7D
  can0  10606F01   [3]  00 00 E7
  can0  10607B01   [8]  29 FD 7F 3F FB A4 19 A1
  can0  10607B01   [8]  BB F7 CD B2 3B 00 D9 01
  can0  10606F01   [3]  00 00 E9
  can0  10607B01   [8]  29 FD 7F 3F BA B5 19 A4
  can0  10606F01   [3]  00 00 EB
  can0  10607B01   [8]  29 FD 7F 3F EC B2 19 A7
  can0  10607B01   [8]  BB BF DE B2 3B 13 E9 07
  can0  1067D132   [8]  00 5C 3F 00 00 7E D3 2F
  can0  1067D132   [8]  B5 62 01 36 40 00 48 0F
  can0  1067D132   [8]  3F 00 00 00 01 01 00 2F
  can0  1067D132   [8]  00 00 80 3F 00 00 80 0F
  can0  10606F01   [3]  00 00 EF
  can0  10607B01   [8]  29 FD 7F 3F DE B9 19 AE
  can0  10606F01   [3]  00 00 F1
  can0  10607B01   [8]  29 FD 7F 3F 40 C1 19 B1
  can0  10607B01   [8]  29 FD 7F 3F 1E C1 19 B4
  can0  10607B01   [8]  BB 2D D5 B2 3B AC 08 14
  can0  10607B01   [5]  EB BB A4 13 74
  can0  10606F01   [3]  00 00 F5
  can0  10607B01   [8]  29 FD 7F 3F 4B BC 19 B7
  can0  10607B01   [8]  29 FD 7F 3F 34 CF 19 BA
  can0  10607B01   [8]  BB BD C2 B2 3B 5E FD 1A
  can0  10607B01   [5]  EA BB 23 37 7A
  can0  10607B01   [8]  29 FD 7F 3F 63 F3 19 BD
  can0  10606F01   [3]  00 00 F9
  can0  10607B01   [8]  00 00 00 00 00 00 00 BE
  can0  10606F01   [3]  00 00 FB
  can0  10607B01   [8]  29 FD 7F 3F 36 FC 19 A1
  can0  10607B01   [8]  00 00 00 00 00 00 00 A5
  can0  10607B01   [8]  00 00 00 00 00 00 00 05
  can0  10607B01   [8]  29 FD 7F 3F 87 EA 19 A7
  can0  10607B01   [8]  BB E1 B8 B2 3B 36 34 07
  can0  10607B01   [5]  EB BB 0C 37 67
  can0  1067D132   [8]  00 00 00 00 00 00 00 33
  can0  1067D132   [8]  00 E5 A2 4C 55 00 00 13
  can0  10607B01   [8]  00 00 00 00 00 00 00 AA
  can0  10607B01   [5]  00 00 6A 0A 6A
  can0  10606F01   [3]  00 00 E3
  can0  10607B01   [8]  29 FD 7F 3F 4F CB 19 AD
  can0  10606F01   [3]  00 00 E5
  can0  10607B01   [8]  00 00 00 00 00 00 00 B1
  can0  10607B01   [8]  29 FD 7F 3F 5C F1 19 B3
  can0  10607B01   [8]  BB DA DC B2 3B 11 25 13
  can0  10606F01   [3]  00 00 E9
  can0  10607B01   [8]  27 FD 7F 3F DF 01 1A B8
  can0  10607B01   [8]  BB E6 01 B3 3B 0C 31 18
  can0  10606F01   [3]  00 00 EB
  can0  10607B01   [8]  00 00 00 00 00 00 00 BB
  can0  10607B01   [8]  00 00 00 00 00 00 00 1B
  can0  10606F01   [3]  00 00 ED
  can0  10607B01   [8]  00 00 00 00 00 00 00 BE
  can0  10606F01   [3]  00 00 EE
  can0  10607B01   [8]  29 FD 7F 3F 97 29 1A A0
  can0  10606F01   [3]  00 00 F1
  can0  10607B01   [8]  29 FD 7F 3F 80 1D 1A A4
  can0  10607B01   [8]  BB DB ED B2 3B A7 02 04
  can0  10606F01   [3]  00 00 F3
  can0  10607B01   [8]  00 00 00 00 00 00 00 A7
  can0  1067D132   [8]  62 01 36 40 00 10 40 18
  can0  1067D132   [8]  00 00 00 01 01 00 00 38
  can0  1067D132   [8]  00 80 3F 00 00 80 3F 18
  can0  1067D132   [8]  E5 A2 4C 55 00 00 00 38
  can0  10606F01   [3]  00 00 F7
  can0  10607B01   [8]  29 FD 7F 3F B2 DF 19 AD
  can0  10606F01   [3]  00 00 F9
  can0  10607B01   [8]  00 00 00 00 00 00 00 B0
  can0  10606F01   [3]  00 00 FA
  can0  0C63FF7C   [8]  00 00 00 00 00 00 00 BB
  can0  10607B01   [8]  00 00 00 00 00 00 00 B3
  can0  10607B01   [8]  00 00 00 00 00 00 00 13
  can0  10607B01   [8]  29 FD 7F 3F 8B 06 1A B4
  can0  10606F01   [3]  00 00 FD
  can0  10606F01   [3]  00 00 FF
  can0  10607B01   [8]  29 FD 7F 3F 4F 21 1A BA
  can0  10607B01   [8]  27 FD 7F 3F 4C 37 1A BE
  can0  10607B01   [8]  BB 9A 18 B3 3B 46 16 1E
  can0  10607B01   [5]  EB BB FA 0D 7E
  can0  10606F01   [3]  00 00 E3
  can0  10607B01   [8]  27 FD 7F 3F B5 6A 1A A1
  can0  10606F01   [3]  00 00 E5
  can0  10607B01   [8]  27 FD 7F 3F 02 60 1A A4
  can0  10606F01   [3]  00 00 E7
  can0  10607B01   [8]  00 00 00 00 00 00 00 A7
  can0  10607B01   [8]  00 00 00 00 00 00 00 07
  can0  1067D132   [8]  55 B5 62 01 36 40 00 1C
  can0  1067D132   [8]  74 40 00 00 00 01 01 3C
  can0  1067D132   [8]  00 00 00 80 3F 00 00 1C
  can0  1067D132   [8]  80 3F E5 A2 4C 55 00 3C
  can0  10606F01   [3]  00 00 EB
  can0  10607B01   [8]  27 FD 7F 3F 4C 69 1A AE
  can0  10606F01   [3]  00 00 ED
  can0  10607B01   [8]  27 FD 7F 3F E4 75 1A B1
  can0  10607B01   [8]  BB 56 22 B3 3B 88 19 11
  can0  10607B01   [8]  00 00 00 00 00 00 00 B2
  can0  10606F01   [3]  00 00 EF
  can0  10607B01   [8]  27 FD 7F 3F C9 62 1A B5
  can0  10606F01   [3]  00 00 F1
  can0  10607B01   [8]  27 FD 7F 3F 01 69 1A B8
  can0  10607B01   [8]  00 00 00 00 00 00 00 BC
  can0  10607B01   [8]  00 00 00 00 00 00 00 1C
  can0  10606F01   [3]  00 00 F5
  can0  10607B01   [8]  26 FD 7F 3F 63 86 1A BF
  can0  10606F01   [3]  00 00 F6
  can0  10606F01   [3]  00 00 F7
  can0  10607B01   [8]  26 FD 7F 3F 03 BA 1A A2
  can0  10607B01   [8]  26 FD 7F 3F 59 B0 1A A5
  can0  10607B01   [8]  00 00 00 00 00 00 00 A6
  can0  10607B01   [8]  00 00 00 00 00 00 00 06
  can0  10607B01   [8]  00 00 00 00 00 00 00 A9
  can0  10607B01   [8]  00 00 00 00 00 00 00 09
  can0  1067D132   [8]  16 B8 B5 62 01 03 10 00
  can0  1C7D567F   [8]  00 00 00 00 00 00 00 36
  can0  1C7D567F   [8]  00 00 00 00 00 00 00 16
  can0  1067D132   [8]  00 08 00 00 00 00 EC 00
  can0  10607B01   [8]  BB 5E 6F B3 3B DA CC 0F
  can0  10607B01   [8]  00 00 00 00 00 00 00 B0
  can0  10606F01   [3]  00 00 E1
  can0  10607B01   [8]  00 00 00 00 00 00 00 B3
  can0  10606F01   [3]  00 00 E2
  can0  10606F01   [3]  00 00 E3
  can0  10607B01   [8]  24 FD 7F 3F 65 D2 1A B6
  can0  10606F01   [3]  00 00 E5
  can0  10607B01   [8]  24 FD 7F 3F 81 E2 1A B9
  can0  10606F01   [3]  00 00 E7
  can0  10607001   [2]  00 EB
  can0  10607B01   [8]  00 00 00 00 00 00 00 BD
  can0  10606F01   [3]  00 00 E9
  can0  10607B01   [8]  00 00 00 00 00 00 00 A0
  can0  10607B01   [5]  EB BB 6E 40 63
  can0  10607B01   [8]  24 FD 7F 3F 79 F4 1A A4
  can0  10607B01   [8]  BB 6A 73 B3 3B 5D D9 04
  can0  10606F01   [3]  00 00 ED
  can0  10607B01   [8]  00 00 00 00 00 00 00 A7
  can0  10606F01   [3]  00 00 EF
  can0  10607B01   [8]  00 00 00 00 00 00 00 AA
  can0  1067D132   [8]  00 00 00 00 56 29 B5 03
  can0  1067D132   [8]  62 01 03 10 00 3C 41 23
  can0  1067D132   [8]  00 00 00 40 00 08 00 03
  can0  10606F01   [3]  00 00 F3
  can0  10607B01   [8]  24 FD 7F 3F E9 01 1B B0
  can0  10606F01   [3]  00 00 F5
  can0  10607B01   [8]  00 00 00 00 00 00 00 B3
  can0  10607B01   [8]  00 00 00 00 00 00 00 13
  can0  10607B01   [8]  24 FD 7F 3F 4C 1B 1B B7
  can0  10607B01   [8]  BB 0A 89 B3 3B 73 A1 17
  can0  10607B01   [5]  EB BB 2B A3 77
  can0  10606F01   [3]  00 00 F9
  can0  10607B01   [8]  24 FD 7F 3F 4C 14 1B BA
  can0  10607B01   [8]  BB 3C 90 B3 3B F7 B5 1A
  can0  10606F01   [3]  00 00 FB
  can0  10607B01   [8]  00 00 00 00 00 00 00 BD
  can0  107D5532   [8]  11 00 00 00 00 00 00 F1
  can0  10607B01   [8]  24 FD 7F 3F 97 17 1B A1
  can0  10607B01   [8]  BB 23 93 B3 3B A3 C4 01
  can0  10606F01   [3]  00 00 FF
  can0  10607B01   [8]  24 FD 7F 3F C3 10 1B A4
  can0  10607B01   [8]  BB D2 94 B3 3B F2 B1 04
  can0  10606F01   [3]  00 00 E1
  can0  10607B01   [8]  00 00 00 00 00 00 00 A7
  can0  10607B01   [8]  24 FD 7F 3F 55 31 1B AB
  can0  10607B01   [8]  BB DA A2 B3 3B D2 93 0B
  can0  10607B01   [5]  EB BB 88 52 6B
  can0  1067D132   [5]  00 00 87 A8 66
  can0  1067D332   [8]  00 00 00 00 00 00 00 A8
  can0  1067D332   [8]  00 00 00 00 00 00 00 08
  can0  1067D332   [8]  00 00 00 00 00 00 00 28
  can0  10606F01   [3]  00 00 E7
  can0  10607B01   [8]  24 FD 7F 3F C4 39 1B B1
  can0  10607B01   [8]  24 FD 7F 3F B6 06 1B B5
  can0  10607B01   [8]  BB 47 84 B3 3B E5 90 15
  can0  10606F01   [3]  00 00 EB
  can0  10607B01   [8]  24 FD 7F 3F D1 24 1B B8
  can0  10606F01   [3]  00 00 ED
  can0  10607B01   [8]  24 FD 7F 3F 78 FE 1A BB
  can0  10606F01   [3]  00 00 EF
  can0  10607B01   [8]  24 FD 7F 3F C0 F7 1A BE
  can0  10607B01   [8]  BB 89 8D B3 3B D9 93 1E
  can0  10606F01   [3]  00 00 F1
  can0  10607B01   [8]  24 FD 7F 3F 1C 12 1B A2
  can0  10606F01   [3]  00 00 F3
  can0  10607B01   [8]  24 FD 7F 3F 21 05 1B A5
  can0  10607B01   [8]  BB 94 7F B3 3B D3 7F 05
  can0  10606F01   [3]  00 00 F5
  can0  10607B01   [8]  24 FD 7F 3F E2 08 1B A8
  can0  10606F01   [3]  00 00 F7
  can0  10607B01   [8]  24 FD 7F 3F CB F9 1A AC
  can0  10607B01   [8]  BB 14 59 B3 3B 26 86 0C
  can0  1067D132   [8]  00 04 42 00 00 00 40 2A
  can0  1067D132   [8]  00 08 00 00 00 00 18 0A
  can0  1067D132   [8]  42 00 00 FC B9 B5 62 2A
  can0  1067D132   [8]  01 36 40 00 04 42 00 0A
  can0  107D5601   [8]  00 00 00 00 00 00 00 2F
  can0  107D5601   [8]  00 00 00 00 00 00 00 2F
  can0  10607B01   [8]  00 00 00 00 00 00 00 B4
  can0  10607B01   [8]  00 00 00 00 00 00 00 14
  can0  10606F01   [3]  00 00 FF
  can0  10607B01   [8]  26 FD 7F 3F 1F 9F 1A B8
  can0  10606F01   [3]  00 00 E1
  can0  10607B01   [8]  26 FD 7F 3F BA 97 1A BB
  can0  10607B01   [8]  BB 04 58 B3 3B A0 69 1B
  can0  10607B01   [5]  EB BB 80 54 7B
  can0  10607B01   [8]  00 00 00 00 00 00 00 BC
  can0  1067D132   [2]  30 6E
  can0  1067D132   [8]  13 00 36 35 1F EF 5E AF
  can0  10607B01   [8]  26 FD 7F 3F 45 30 1A A1
  can0  10607B01   [8]  BB 85 66 B3 3B AB 6E 01
  can0  10606F01   [3]  00 00 E6
  can0  10607B01   [8]  26 FD 7F 3F 01 28 1A A4
  can0  10607B01   [8]  00 00 00 00 00 00 00 A8
  can0  10607B01   [8]  00 00 00 00 00 00 00 08
  can0  10607B01   [8]  00 00 00 00 00 00 00 AA
  can0  10607B01   [8]  00 00 00 00 00 00 00 0A
  can0  1067D132   [8]  42 00 00 00 01 01 00 32
  can0  1067D132   [8]  00 00 80 3F 00 00 80 12
  can0  1067D132   [8]  3F E5 A2 4C 55 00 00 32
  can0  1067D132   [8]  00 00 00 00 00 00 E5 12
  can0  10606F01   [3]  00 00 EE
  can0  10607B01   [8]  26 FD 7F 3F E1 DC 19 B1
  can0  10607B01   [8]  00 00 00 00 00 00 00 B5
  can0  10607B01   [8]  00 00 00 00 00 00 00 15
  can0  10606F01   [3]  00 00 F2
  can0  10607B01   [8]  28 FD 7F 3F 6D B6 19 B8
  can0  10607B01   [8]  00 00 00 00 00 00 00 BC
  can0  10607B01   [8]  00 00 00 00 00 00 00 1C
  can0  10607B01   [5]  00 00 6A 0A 7C
  can0  10606F01   [3]  00 00 F6
  can0  10607B01   [8]  27 FD 7F 3F 2D 9D 19 BE
  can0  10607B01   [5]  00 00 6A 0A 62
  can0  10606F01   [3]  00 00 FA
  can0  10607B01   [8]  27 FD 7F 3F FA 83 19 A3
  can0  10606F01   [3]  00 00 FB
  can0  10607B01   [8]  27 FD 7F 3F 9D A7 19 A5
  can0  10607B01   [8]  BB F6 15 B3 3B 1B 76 05
  can0  10607B01   [5]  EB BB 75 42 65
  can0  1360197F   [8]  1D 75 61 76 63 61 6E AC
  can0  10606F01   [3]  00 00 FF
  can0  10607B01   [8]  27 FD 7F 3F 1A D3 19 AB
  can0  10607B01   [8]  BB B0 24 B3 3B 58 76 0B
  can0  1360597F   [3]  23 00 E8
  can0  1067D132   [8]  00 00 00 40 00 08 00 15
  can0  1067D132   [8]  00 00 00 E0 42 00 00 35
  can0  10606F01   [3]  00 00 E3
  can0  10607B01   [8]  27 FD 7F 3F B2 C5 19 B1
  can0  10606F01   [3]  00 00 E6
  can0  10607B01   [8]  27 FD 7F 3F FE CB 19 B6
  can0  10607B01   [8]  25 FD 7F 3F A3 AA 19 B8
  can0  10607B01   [8]  25 FD 7F 3F 78 A2 19 B9
  can0  10607B01   [8]  BB 67 2B B3 3B D9 B2 19
  can0  10607B01   [8]  27 FD 7F 3F 79 C2 19 BC
  can0  10607B01   [8]  BB B8 26 B3 3B B1 AC 1C
  can0  10607B01   [8]  27 FD 7F 3F 76 C8 19 BE
  can0  10606F01   [3]  00 00 EC
  can0  10607B01   [8]  25 FD 7F 3F 11 B5 19 A0
  can0  10606F01   [3]  00 00 EE
  can0  10607B01   [8]  27 FD 7F 3F C9 CD 19 A3
  can0  0C63FF7C   [8]  00 00 00 00 00 00 00 A9
  can0  0C63FF7C   [4]  40 A7 07 69
  can0  10607B01   [8]  BB 83 0E B3 3B C7 BB 06
  can0  10606F01   [3]  00 00 F0
  can0  10606F01   [3]  00 00 F2
  can0  10607B01   [8]  25 FD 7F 3F 3B CE 19 AA
  can0  10607B01   [8]  27 FD 7F 3F EB E1 19 AB
  can0  10607B01   [8]  25 FD 7F 3F 38 E5 19 AD
  can0  10607B01   [8]  BB 21 E4 B2 3B 97 B5 0D
  can0  1067D132   [8]  00 44 43 00 00 56 3B 19
  can0  1067D132   [8]  B5 62 01 36 40 00 30 39
  can0  10607B01   [8]  27 FD 7F 3F B3 BC 19 B0
  can0  10606F01   [3]  00 00 F8
  can0  10607B01   [8]  00 00 00 00 00 00 00 B4
  can0  10607B01   [8]  27 FD 7F 3F A1 93 19 B7
  can0  10607B01   [8]  BB DD E5 B2 3B 2B C1 17
  can0  10606F01   [3]  00 00 FA
  can0  10606F01   [3]  00 00 FB
  can0  10606F01   [3]  00 00 FE
  can0  10607B01   [8]  00 00 00 00 00 00 00 BD
  can0  10607B01   [8]  00 00 00 00 00 00 00 1D
  can0  10606F01   [3]  00 00 E0
  can0  10607B01   [8]  27 FD 7F 3F D4 9A 19 A0
  can0  10607B01   [8]  27 FD 7F 3F 47 C7 19 A3
  can0  10607B01   [8]  BB EA F5 B2 3B 63 BA 03
  can0  10606F01   [3]  00 00 E4
  can0  10607B01   [8]  00 00 00 00 00 00 00 A7
  can0  10607B01   [8]  00 00 00 00 00 00 00 07
  can0  0C63FE7C   [8]  00 00 C0 7F 00 00 C0 0B
  can0  0C63FF7C   [8]  00 00 00 00 00 00 00 AB
  can0  10607B01   [8]  00 00 00 00 00 00 00 AA
  can0  10607B01   [8]  00 00 00 00 00 00 00 0A
  can0  10607B01   [8]  27 FD 7F 3F 24 CE 19 AD
  can0  10607B01   [8]  BB D2 ED B2 3B 7B CC 0D
  can0  10607B01   [5]  EB BB F9 F3 70
  can0  1067D132   [8]  43 00 00 1E 0B B5 62 3D
  can0  10607B01   [8]  00 00 00 00 00 00 00 B4
  can0  10607B01   [8]  00 00 00 00 00 00 00 14
  can0  10607B01   [8]  27 FD 7F 3F 76 89 19 B7
  can0  10607B01   [8]  BB 79 E0 B2 3B 32 BB 17
  can0  10607B01   [5]  EB BB 1C 77 77
  can0  0C63FE7C   [8]  00 00 C0 7F 00 00 C0 0C
  can0  0C63FE7C   [5]  00 00 79 27 4C
  can0  0C63FF7C   [8]  00 00 00 00 00 00 00 AC
  can0  0C63FF7C   [4]  40 FF 82 6C
  can0  10606F01   [3]  00 00 F0
  can0  10606F01   [3]  00 00 F2
  can0  10607B01   [8]  00 00 00 00 00 00 00 A1
  can0  10607B01   [8]  00 00 00 00 00 00 00 01
  can0  10606F01   [3]  00 00 F6
  can0  10607B01   [8]  27 FD 7F 3F 2F AC 19 A5
  can0  10607B01   [8]  BB 78 F2 B2 3B AA B8 05
  can0  10607B01   [8]  00 00 00 00 00 00 00 A7
  can0  10607B01   [8]  00 00 00 00 00 00 00 07
  can0  10607B01   [8]  00 00 00 00 00 00 00 AA
  can0  10607B01   [8]  00 00 00 00 00 00 00 0A
  can0  10606F01   [3]  00 00 FA
  can0  10606F01   [3]  00 00 FC
  can0  10607B01   [8]  27 FD 7F 3F 2F 73 19 AE
  can0  1067D132   [8]  00 00 00 40 00 08 00 01
  can0  1067D132   [8]  00 00 00 0C 44 00 00 21
  can0  1067D132   [8]  E7 DE B5 62 01 36 40 01
  can0  10606F01   [3]  00 00 FF
  can0  10607B01   [8]  00 00 00 00 00 00 00 B3
  can0  10607B01   [8]  27 FD 7F 3F BD 63 19 B7
  can0  10607B01   [8]  BB AC DC B2 3B 3E 5F 17
  can0  10606F01   [3]  00 00 E3
  can0  10607B01   [8]  28 FD 7F 3F 04 A7 19 BA
  can0  10607B01   [8]  BB 1D E0 B2 3B 63 3E 1A
  can0  10606F01   [3]  00 00 E5
  can0  10607B01   [8]  00 00 00 00 00 00 00 BD
  can0  107D557C   [8]  17 00 00 00 02 00 0E F4
  can0  10607B01   [8]  28 FD 7F 3F 6A 81 19 A1
  can0  10607B01   [8]  BB 02 E9 B2 3B D5 1F 01
  can0  10606F01   [3]  00 00 E9
  can0  10607001   [2]  00 F3
  can0  10606F01   [3]  00 00 EB
  can0  10607B01   [8]  00 00 00 00 00 00 00 A7
  can0  10607B01   [8]  00 00 00 00 00 00 00 0A
  can0  10607B01   [8]  2A FD 7F 3F FE 6F 19 AB
  can0  10607B01   [8]  BB C6 C4 B2 3B 95 1E 0B
  can0  10606F01   [3]  00 00 EF
  can0  10607B01   [8]  28 FD 7F 3F 49 64 19 AE
  can0  0C63FD7C   [8]  00 00 00 00 00 00 00 AF
  can0  1067D332   [8]  00 00 00 00 00 00 00 0F
  can0  1067D332   [8]  00 00 00 00 00 00 00 2F
  can0  1067D332   [8]  00 00 00 00 00 00 00 0F
  can0  1067D332   [8]  00 00 00 00 00 00 00 2F
  can0  10607B01   [8]  2A FD 7F 3F E6 86 19 B5
  can0  10607B01   [8]  BB 44 A7 B2 3B 47 03 15
  can0  10606F01   [3]  00 00 F5
  can0  10607B01   [8]  2A FD 7F 3F 9D 6C 19 B8
  can0  10606F01   [3]  00 00 F7
  can0  10607B01   [8]  2A FD 7F 3F BE 81 19 BB
  can0  10607B01   [5]  00 00 6A 0A 7D
  can0  10607B01   [8]  2A FD 7F 3F 6C B8 19 BE
  can0  10607B01   [8]  BB 21 F6 B2 3B A0 FE 1E
  can0  10606F01   [3]  00 00 FB
  can0  10607B01   [8]  28 FD 7F 3F AE EC 19 A1
  can0  10607B01   [8]  BB 66 FB B2 3B 72 02 01
  can0  10606F01   [3]  00 00 FD
  can0  10607B01   [8]  28 FD 7F 3F 56 E0 19 A4
  can0  10606F01   [3]  00 00 FF
  can0  10607B01   [8]  2A FD 7F 3F E4 C2 19 A7
  can0  10607B01   [8]  BB 80 0C B3 3B 9B EF 07
  can0  10606F01   [3]  00 00 E1
  can0  10607B01   [8]  28 FD 7F 3F 03 BA 19 AA
  can0  10606F01   [3]  00 00 E3
  can0  10607B01   [8]  28 FD 7F 3F AB B7 19 AD
  can0  1067D132   [8]  00 00 00 00 00 00 00 29
  can0  1067D132   [8]  03 D6 B5 62 01 03 10 09
  can0  1067D132   [8]  00 C0 44 00 00 00 40 29
  can0  1067D132   [8]  00 08 00 00 00 00 D4 09
  can0  1C7D567F   [8]  00 00 00 40 00 00 00 37
  can0  1C7D567F   [8]  00 00 00 00 00 00 00 37
  can0  1C7D567F   [8]  00 00 00 00 00 00 00 37
  can0  10606F01   [3]  00 00 E9
  can0  10607B01   [8]  28 FD 7F 3F CC AA 19 B6
  can0  10606F01   [3]  00 00 EB
  can0  10607B01   [8]  28 FD 7F 3F 91 D1 19 B9
  can0  10606F01   [3]  00 00 ED
  can0  10607B01   [8]  00 00 00 00 00 00 00 BD
  can0  10606F01   [3]  00 00 EF
  can0  10607B01   [8]  28 FD 7F 3F 57 AB 19 A0
  can0  10607B01   [8]  BB 6B 30 B3 3B 28 03 00
  can0  10607B01   [8]  00 00 00 00 00 00 00 A4
  can0  10607B01   [8]  00 00 00 00 00 00 00 04
  can0  10607B01   [5]  00 00 6A 0A 64
  can0  10607B01   [8]  28 FD 7F 3F 52 A8 19 A6
  can0  10607B01   [8]  BB 15 41 B3 3B C3 00 06
  can0  10606F01   [3]  00 00 F5
  can0  10607B01   [8]  28 FD 7F 3F 5A A5 19 AA
  can0  10606F01   [3]  00 00 F7
  can0  10607B01   [8]  28 FD 7F 3F 44 7F 19 AD
  can0  10607B01   [8]  BB 6E 35 B3 3B E1 17 0D
  can0  1067D132   [8]  00 00 01 01 00 00 00 2C
  can0  1067D132   [8]  80 3F 00 00 80 3F E5 0C
  can0  1067D132   [8]  A2 4C 55 00 00 F8 C3 6C
  can0  1067D332   [8]  00 00 00 00 00 00 00 B1
  can0  10607B01   [8]  28 FD 7F 3F 37 9C 19 B3
  can0  10607B01   [8]  BB 04 1E B3 3B 2E 1E 13
  can0  10606F01   [3]  00 00 FD
  can0  10607B01   [8]  28 FD 7F 3F EC 7C 19 B7
  can0  10607B01   [8]  28 FD 7F 3F 15 8C 19 B9
  can0  10607B01   [8]  BB F8 FE B2 3B F5 27 19
  can0  10606F01   [3]  00 00 E1
  can0  10607B01   [8]  00 00 00 00 00 00 00 BD
  can0  10607B01   [8]  00 00 00 00 00 00 00 1D
  can0  10607B01   [8]  00 00 00 00 00 00 00 1F
  can0  10607B01   [5]  00 00 6A 0A 7F
  can0  10606F01   [3]  00 00 E3
  can0  107D5532   [8]  12 00 00 00 00 00 00 F2
  can0  10606F01   [3]  00 00 E5
  can0  10607001   [2]  00 F6
  can0  10607B01   [8]  27 FD 7F 3F F7 B1 19 A6
  can0  10607B01   [8]  BB F6 DE B2 3B 8A 64 06
  can0  10607B01   [5]  EB BB 9A 9B 66
  can0  10607B01   [8]  27 FD 7F 3F 33 C7 19 A8
  can0  10607B01   [8]  29 FD 7F 3F 00 BB 19 AB
  can0  10607B01   [8]  29 FD 7F 3F 5B D5 19 AD
  can0  10607B01   [8]  BB C5 AB B2 3B D5 6A 0D 3F F3 6A 1B AE
  can0  10606F01   [3]  00 00 EE
  can0  10607B01   [8]  28 FD 7F 3F 24 A5 1B B1
  can0  10606F01   [3]  00 00 F0
  can0  10607B01   [8]  00 00 00 00 00 00 00 B5
  can0  10607B01   [8]  00 00 00 00 00 00 00 15
  can0  10606F01   [3]  00 00 F2
  can0  10607B01   [8]  28 FD 7F 3F 2B AB 1B B8
  can0  10607B01   [8]  28 FD 7F 3F CB CC 1B B9
  can0  10606F01   [3]  00 00 F4
  can0  10607B01   [8]  28 FD 7F 3F 26 EE 1B BB
  can0  10606F01   [3]  00 00 F6
  can0  10607B01   [8]  00 00 00 00 00 00 00 BF
  can0  10607B01   [8]  00 00 00 00 00 00 00 1F
  can0  10606F01   [3]  00 00 F8
  can0  10607B01   [8]  00 00 00 00 00 00 00 A2
  can0  10607B01   [8]  00 00 00 00 00 00 00 02
  can0  10607B01   [8]  28 FD 7F 3F AC 9D 1C A5
  can0  10607B01   [8]  BB EB E3 B1 3B 7B B1 05
  can0  1360597F   [3]  26 00 ED
  can0  12607FB2   [8]  1A 75 61 76 63 61 6E AD
  can0  1067D132   [8]  4A 23 00 00 00 00 00 0C
  can0  1067D132   [8]  00 00 00 00 9C 6B B5 2C
  can0  1067D132   [8]  62 01 03 10 00 B8 56 0C
  can0  1067D132   [8]  00 00 00 40 00 08 00 2C
  can0  1067D132   [8]  00 00 00 CC 56 00 00 0C
  can0  10606F01   [3]  00 00 E0
  can0  10607B01   [8]  00 00 00 00 00 00 00 AF
  can0  1360197F   [8]  19 75 61 76 63 61 6E B4
  can0  1360197F   [8]  2E 70 75 62 2E 7A 75 14
  can0  10606F01   [3]  00 00 E4
  can0  10607B01   [8]  00 00 00 00 00 00 00 B6
  can0  10606F01   [3]  00 00 E6
  can0  10607B01   [8]  00 00 00 00 00 00 00 B9
  can0  10607B01   [8]  28 FD 7F 3F D9 7F 1C BA
  can0  10606F01   [3]  00 00 E8
  can0  10607B01   [8]  28 FD 7F 3F 84 61 1C BD
  can0  10607B01   [8]  BB D5 D9 B1 3B 13 73 1D
  can0  10606F01   [3]  00 00 EA
  can0  10607001   [2]  00 E2
  can0  10607B01   [8]  00 00 00 00 00 00 00 A3
  can0  10607B01   [8]  00 00 00 00 00 00 00 03
  can0  10606F01   [3]  00 00 EE
  can0  10607B01   [8]  2A FD 7F 3F 49 3C 1C A7
  can0  10607B01   [8]  BB E6 CD B1 3B 6B 49 07
  can0  10606F01   [3]  00 00 F0
  can0  10607B01   [8]  00 00 00 00 00 00 00 AA
  can0  1067D132   [8]  40 00 08 00 00 00 00 11
  can0  1067D132   [8]  30 57 00 00 56 13 B5 31
  can0  1067D132   [8]  62 01 36 40 00 1C 57 11
  can0  10606F01   [3]  00 00 F4
  can0  10607B01   [8]  2A FD 7F 3F 09 DC 1B B0
  can0  10607B01   [8]  BB 4F D0 B1 3B 8E 21 10
  can0  10606F01   [3]  00 00 F6
  can0  10607B01   [8]  2A FD 7F 3F 7F 15 1C B3
  can0  10606F01   [3]  00 00 F8
  can0  10607B01   [8]  00 00 00 00 00 00 00 B6
  can0  10606F01   [3]  00 00 FA
  can0  10607B01   [8]  2A FD 7F 3F 03 D7 1B BA
  can0  10607B01   [8]  BB 39 CC B1 3B 5F 28 1A
  can0  10606F01   [3]  00 00 FC
  can0  10607B01   [8]  2A FD 7F 3F F8 C2 1B BD
  can0  10607B01   [8]  BB D5 E2 B1 3B E8 1C 1D
  can0  10607001   [2]  00 E3
  can0  10607B01   [8]  2A FD 7F 3F F2 1E 1C A0
  can0  10606F01   [3]  00 00 E0
  can0  10607B01   [8]  2C FD 7F 3F 70 F8 1B A4
  can0  10607B01   [8]  BB 5C D3 B1 3B BF ED 04
  can0  10606F01   [3]  00 00 E2
  can0  10607B01   [8]  2C FD 7F 3F 5A 09 1C A7
  can0  10606F01   [3]  00 00 E4
  can0  10607B01   [8]  2A FD 7F 3F FF 07 1C AA
  can0  10607B01   [8]  BB DB DE B1 3B 9B 07 0A
  can0  1067D132   [8]  00 F8 4A 23 00 00 00 14
  can0  1067D132   [8]  00 00 00 00 00 00 21 34
  can0  1067D132   [5]  B7 B5 C3 4A 54
  can0  1067D332   [8]  00 00 00 00 00 00 00 A0
  can0  10606F01   [3]  00 00 E8
  can0  10607B01   [8]  2A FD 7F 3F 31 56 1C B1
  can0  10607B01   [8]  2A FD 7F 3F 97 6E 1C B4
  can0  10607B01   [8]  BB CF E9 B1 3B B1 0D 14
  can0  10607B01   [8]  00 00 00 00 00 00 00 B7
  can0  10607B01   [8]  00 00 00 00 00 00 00 17
  can0  10607B01   [5]  00 00 6A 0A 77
  can0  0C63FF7C   [8]  00 00 00 00 B1 C6 84 0D
  can0  10606F01   [3]  00 00 EE
  can0  10607B01   [8]  2A FD 7F 3F 8A 69 1C BB
  can0  107D557C   [8]  1C 00 00 00 02 00 0E F9
  can0  10607B01   [8]  2A FD 7F 3F 89 5A 1C BE
  can0  10607B01   [8]  2A FD 7F 3F D7 3D 1C A1
  can0  10607B01   [8]  BB C4 F4 B1 3B EC EC 01
  can0  10607B01   [5]  EA BB 30 F8 61
  can0  10606F01   [3]  00 00 F2
  can0  10606F01   [3]  00 00 F4
  can0  10607B01   [8]  2A FD 7F 3F 76 41 1C A5
  can0  10606F01   [3]  00 00 F6
  can0  10607B01   [8]  2A FD 7F 3F AE 5F 1C A8
  can0  10607B01   [8]  2A FD 7F 3F 18 90 1C AB
  can0  10607B01   [8]  BB FE 00 B2 3B CD EC 0B
  can0  1067D132   [8]  F8 57 00 00 E6 B3 B5 39
  can0  10607B01   [8]  00 00 00 00 00 00 00 AE
  can0  1067D132   [8]  00 80 3F 00 00 80 3F 19
  can0  1067D132   [8]  E5 A2 4C 55 00 00 00 39
  can0  10607B01   [8]  2A FD 7F 3F F1 DF 1C B2
  can0  10607B01   [8]  BB E9 F5 B1 3B DA 1D 12
  can0  10606F01   [3]  00 00 FE
  can0  10607B01   [8]  00 00 00 00 00 00 00 B6
  can0  10606F01   [3]  00 00 FF
  can0  10607B01   [8]  2A FD 7F 3F D9 DF 1C B8
  can0  10607B01   [8]  00 00 00 00 00 00 00 BB
  can0  10607B01   [8]  00 00 00 00 00 00 00 1B
  can0  10607B01   [8]  28 FD 7F 3F FF BE 1C BE
  can0  10607B01   [8]  BB 8B FA B1 3B 12 5B 1E
  can0  10607B01   [5]  EB BB 9C 1A 7E
  can0  10606F01   [3]  00 00 E6
  can0  10607B01   [8]  00 00 00 00 00 00 00 A2
  can0  10607B01   [8]  00 00 00 00 00 00 00 02
  can0  10606F01   [3]  00 00 E7
  can0  10607B01   [8]  00 00 00 00 00 00 00 A4
  can0  10606F01   [3]  00 00 EA
  can0  10607B01   [8]  28 FD 7F 3F 09 F6 1C A9
  can0  10607B01   [8]  BB 33 ED B1 3B 57 98 09
  can0  10606F01   [3]  00 00 EB
  can0  10607B01   [8]  28 FD 7F 3F 0C 04 1D AB
  can0  10607B01   [8]  BB 17 EF B1 3B FE AF 0B
  can0  0C63FE7C   [8]  00 00 C0 7F 00 00 C0 10
  can0  0C63FF7C   [8]  00 00 00 00 00 00 00 B0
  can0  10607B01   [8]  00 00 00 00 00 00 00 0F
  can0  10607B01   [8]  28 FD 7F 3F 66 FE 1C B2
  can0  10607B01   [8]  BB 2A D9 B1 3B 8E 7E 12
  can0  10606F01   [3]  00 00 F2
  can0  10607B01   [8]  00 00 00 00 00 00 00 B6
  can0  10606F01   [3]  00 00 F3
  can0  10607B01   [8]  28 FD 7F 3F E6 40 1D B8
  can0  10606F01   [3]  00 00 F6
  can0  10607B01   [8]  28 FD 7F 3F 74 24 1D BC
  can0  10607B01   [8]  BB 3B CE B1 3B FF 65 1C
  can0  10607B01   [8]  28 FD 7F 3F F3 56 1D BE
  can0  10607B01   [8]  BB 44 DE B1 3B D7 54 1E
  can0  10606F01   [3]  00 00 FA
  can0  10607B01   [8]  00 00 00 00 00 00 00 A2
  can0  10607B01   [8]  00 00 00 00 00 00 00 02
  can0  10606F01   [3]  00 00 FB
  can0  10607001   [2]  00 E6
  can0  10607B01   [8]  28 FD 7F 3F D1 32 1D A4
  can0  10606F01   [3]  00 00 FE
  can0  10607B01   [8]  28 FD 7F 3F B9 2C 1D A8
  can0  10606F01   [3]  00 00 FF
  can0  10607B01   [8]  28 FD 7F 3F 17 23 1D AA
  can0  10607B01   [8]  BB F6 CE B1 3B EA 65 0A
  can0  1067D132   [8]  00 00 C0 58 00 00 78 00
  can0  1067D132   [8]  65 B5 62 01 36 40 00 20
  can0  1067D132   [8]  AC 58 00 00 00 01 01 00
  can0  10606F01   [3]  00 00 E2
  can0  10607B01   [8]  00 00 00 00 00 00 00 AF
  can0  0C63FD7C   [8]  00 00 00 00 00 00 00 B2
  can0  10607B01   [8]  28 FD 7F 3F 7A 55 1D B4
  can0  10607B01   [8]  BB 46 D7 B1 3B A0 83 14
  can0  10607B01   [8]  28 FD 7F 3F 9D 50 1D B6
  can0  10607B01   [5]  EB BB 92 92 76
  can0  10606F01   [3]  00 00 E7
  can0  10606F01   [3]  00 00 EA
  can0  10607B01   [8]  28 FD 7F 3F 5B 0C 1D BA
  can0  10607B01   [8]  28 FD 7F 3F 4C 15 1D BD
  can0  10607B01   [8]  BB 2F D3 B1 3B EC 9B 1D
  can0  10606F01   [3]  00 00 EE
  can0  10607B01   [8]  28 FD 7F 3F 23 02 1D A1
  can0  0C63FD7C   [8]  00 00 00 00 00 00 00 B3
  can0  10607B01   [8]  28 FD 7F 3F 4F 23 1D A2
  can0  10606F01   [3]  00 00 EF
  can0  10607001   [2]  00 E7
  can0  10607B01   [8]  28 FD 7F 3F CC 3C 1D A6
  can0  10607B01   [8]  BB E5 B7 B1 3B 6C CA 06
  can0  10607B01   [8]  28 FD 7F 3F FA 18 1D A9
  can0  10606F01   [3]  00 00 F4
  can0  10607B01   [8]  00 00 00 00 00 00 00 AA
  can0  1067D132   [8]  01 36 40 00 10 59 00 04
  can0  1067D132   [8]  00 00 01 01 00 00 00 24
  can0  1067D132   [8]  80 3F 00 00 80 3F E5 04
  can0  10606F01   [3]  00 00 F7
  can0  10607B01   [8]  28 FD 7F 3F 35 54 1D AF
  can0  10606F01   [3]  00 00 FA
  can0  10607B01   [8]  00 00 00 00 00 00 00 B3
  can0  10606F01   [3]  00 00 FC
  can0  10607B01   [8]  28 FD 7F 3F C8 4A 1D B6
  can0  10607B01   [8]  28 FD 7F 3F FB 69 1D B9
  can0  10607B01   [8]  BB DD D6 B1 3B AA 44 19
  can0  10607B01   [5]  EB BB 23 06 79
  can0  10606F01   [3]  00 00 E0
  can0  10607B01   [8]  00 00 00 00 00 00 00 BD
  can0  10607B01   [8]  00 00 00 00 00 00 00 1D
  can0  10607B01   [8]  00 00 00 00 00 00 00 A0
  can0  10607B01   [8]  00 00 00 00 00 00 00 00
  can0  10607B01   [8]  2A FD 7F 3F 5F 54 1D A3
  can0  10607B01   [8]  BB B6 99 B1 3B C7 2E 03
  can0  10606F01   [3]  00 00 E4
  can0  10606F01   [3]  00 00 E6
  can0  10607B01   [8]  00 00 00 00 00 00 00 A7
  can0  10607B01   [8]  00 00 00 00 00 00 00 07
  can0  10607B01   [8]  00 00 00 00 00 00 00 AA
  can0  10607B01   [8]  00 00 00 00 00 00 00 0A
  can0  1067D132   [8]  B5 62 01 36 40 00 74 09
  can0  1067D132   [8]  59 00 00 00 01 01 00 29
  can0  1067D132   [8]  00 00 80 3F 00 00 80 09
  can0  1067D132   [8]  3F E5 A2 4C 55 00 00 29
  can0  1067D132   [8]  E5 A2 4C 55 00 00 C8 09
  can0  10606F01   [3]  00 00 EB
  can0  10606F01   [3]  00 00 EE
  can0  10607B01   [8]  00 00 00 00 00 00 00 B4
  can0  10607B01   [8]  00 00 00 00 00 00 00 B7
  can0  10607B01   [8]  00 00 00 00 00 00 00 17
  can0  10606F01   [3]  00 00 F2
  can0  10607B01   [8]  2A FD 7F 3F C4 CA 1C BB
  can0  10607B01   [8]  BB F3 8A B1 3B BF 28 1B
  can0  10607B01   [8]  00 00 00 00 00 00 00 BE
  can0  10607B01   [8]  00 00 00 00 00 00 00 1E
  can0  10607B01   [8]  00 00 00 00 00 00 00 A1
  can0  10607B01   [8]  00 00 00 00 00 00 00 01
  can0  10607B01   [5]  00 00 6A 0A 61
  can0  10607B01   [5]  00 00 6A 0A 64
  can0  0C63FE7C   [5]  00 00 79 27 57
  can0  0C63FF7C   [8]  00 00 00 00 9F 7F 84 17
  can0  10606F01   [3]  00 00 F8
  can0  10607B01   [8]  00 00 00 00 00 00 00 A8
  can0  10607B01   [8]  00 00 00 00 00 00 00 AB
  can0  10607B01   [8]  00 00 00 00 00 00 00 0B
  can0  1067D132   [8]  00 00 80 3F E5 A2 4C 10
  can0  1067D132   [8]  00 00 00 E5 A2 4C 55 30
  can0  1067D332   [8]  00 00 00 00 00 00 00 A6
  can0  10606F01   [3]  00 00 E0
  can0  10607B01   [8]  28 FD 7F 3F F3 03 1D B2
  can0  10607B01   [8]  00 00 00 00 00 00 00 B5
  can0  10607B01   [8]  00 00 00 00 00 00 00 15
  can0  10606F01   [3]  00 00 E4
  can0  10607B01   [8]  2A FD 7F 3F 99 E0 1C B9
  can0  10607B01   [8]  BB A2 7B B1 3B AC 88 19
  can0  10607B01   [8]  2A FD 7F 3F 7C BE 1C BC
  can0  10607B01   [8]  BB F0 60 B1 3B 8D 75 1C
  can0  10607B01   [8]  00 00 00 00 00 00 00 BF
  can0  10607B01   [8]  00 00 00 00 00 00 00 1F
  can0  10607B01   [5]  00 00 6A 0A 7F
  can0  10606F01   [3]  00 00 E9
  can0  10607B01   [8]  00 00 00 00 00 00 00 A2
  can0  10606F01   [3]  00 00 EA
  can0  10607B01   [8]  2A FD 7F 3F BC 5F 1C A6
  can0  10607B01   [8]  BB 12 6E B1 3B C3 5D 06
  can0  10607B01   [8]  2A FD 7F 3F 6E 6D 1C A9
  can0  10607B01   [8]  BB FA 73 B1 3B E8 62 09
  can0  10606F01   [3]  00 00 F0
  can0  10607B01   [8]  2A FD 7F 3F 47 7B 1C AD
  can0  10607B01   [8]  BB 53 6D B1 3B D5 4C 0D
  can0  1067D132   [8]  5A 00 00 9C C9 B5 62 35
  can0  1067D132   [8]  01 36 40 00 3C 5A 00 15
  can0  10607B01   [8]  2C FD 7F 3F D0 45 1C B3
  can0  10607B01   [8]  BB 01 54 B1 3B 69 42 13
  can0  10607B01   [5]  EB BB 93 25 73
  can0  10607B01   [8]  00 00 00 00 00 00 00 B5
  can0  10607B01   [8]  00 00 00 00 00 00 00 15
  can0  10607B01   [8]  2C FD 7F 3F A6 2F 1C B9
  can0  10607B01   [8]  BB BB 3A B1 3B 71 4D 19
  can0  10607B01   [8]  2A FD 7F 3F E7 2B 1C BC
  can0  10607B01   [8]  BB 4F 42 B1 3B 6B 5C 1C
  can0  10606F01   [3]  00 00 FB
  can0  10607B01   [8]  2A FD 7F 3F EE 48 1C BF
  can0  10607B01   [8]  BB 12 49 B1 3B CB 53 1F
  can0  10607B01   [8]  2A FD 7F 3F 31 68 1C A2
  can0  10607B01   [8]  BB 79 39 B1 3B 2F 68 02
  can0  10607B01   [5]  EB BB 37 94 62
  can0  10607B01   [8]  2A FD 7F 3F EA 76 1C A5
  can0  10607B01   [8]  BB D3 40 B1 3B 8F 86 05
  can0  10607001   [2]  00 EB
  can0  10607B01   [8]  2A FD 7F 3F FC 7F 1C A8
  can0  10607B01   [8]  BB 30 4B B1 3B 2E 70 08
  can0  10607B01   [5]  EB BB FE D1 68
  can0  10606F01   [3]  00 00 E2
  can0  10607B01   [5]  00 00 6A 0A 6B
  can0  1067D132   [8]  00 00 00 40 00 08 00 38
  can0  1067D132   [8]  00 00 00 B4 5A 00 00 18
  can0  1067D132   [8]  64 99 B5 62 01 36 40 38
  can0  10606F01   [3]  00 00 E7
  can0  10607B01   [8]  2A FD 7F 3F E0 21 1C B2
  can0  10607B01   [8]  00 00 00 00 00 00 00 B6
  can0  10607B01   [8]  00 00 00 00 00 00 00 16
  can0  10607B01   [8]  2C FD 7F 3F 8A 3B 1C B9
  can0  10607B01   [8]  BB 80 2D B1 3B 5F 75 19
  can0  10607B01   [5]  EB BB 1D A0 7C
  can0  10606F01   [3]  00 00 EE
  can0  10607B01   [8]  00 00 00 00 00 00 00 BD
  can0  10606F01   [3]  00 00 EF
  can0  10607B01   [8]  2A FD 7F 3F 8D 60 1C BF
  can0  10607B01   [8]  2A FD 7F 3F 4D 79 1C A2
  can0  10607B01   [8]  BB 6F 3C B1 3B AE 7C 02
  can0  10607B01   [8]  2A FD 7F 3F C8 5F 1C A5
  can0  10607B01   [8]  BB 75 37 B1 3B 00 70 05
  can0  10607001   [2]  00 EC
  can0  10607B01   [8]  00 00 00 00 00 00 00 A9
  can0  10607B01   [8]  00 00 00 00 00 00 00 09
  can0  10606F01   [3]  00 00 F7
  can0  10607B01   [8]  2A FD 7F 3F 90 04 1C AB
  can0  10607B01   [8]  BB 7F 49 B1 3B 89 61 0B
  can0  10607B01   [5]  EB BB BA 52 6B
  can0  10607B01   [8]  00 00 00 00 00 00 00 AC
  can0  1067D132   [8]  18 5B 00 00 2E 7B B5 3D
  can0  10607B01   [8]  2A FD 7F 3F C3 0A 1C AF
  can0  10606F01   [3]  00 00 FB
  can0  10607B01   [8]  00 00 00 00 00 00 00 B6
  can0  10607B01   [8]  00 00 00 00 00 00 00 16
  can0  10607B01   [8]  00 00 00 00 00 00 00 18
  can0  10607B01   [8]  2A FD 7F 3F FE E9 1B B9
  can0  10606F01   [3]  00 00 E0
  can0  10607B01   [8]  2A FD 7F 3F 6B E7 1B BA
  can0  0C63FF7C   [8]  00 00 00 00 CE CA 84 1E
  can0  10607B01   [8]  2A FD 7F 3F 7F F1 1B BD
  can0  10607B01   [8]  00 00 00 00 00 00 00 A0
  can0  10607B01   [8]  00 00 00 00 00 00 00 00
  can0  10606F01   [3]  00 00 E6
  can0  10607B01   [8]  2A FD 7F 3F D1 ED 1B A4
  can0  10607B01   [8]  BB C6 5F B1 3B 3D 9E 04
  can0  10607B01   [8]  2A FD 7F 3F C7 10 1C A7
  can0  10607B01   [8]  BB CF 58 B1 3B 9E 9F 07
  can0  10607B01   [8]  00 00 00 00 00 00 00 AA
  can0  10607B01   [8]  00 00 00 00 00 00 00 0A
  can0  10607B01   [8]  00 00 00 00 00 00 00 0D
  can0  0C63FE7C   [8]  00 00 C0 7F 00 00 C0 1F
  can0  0C63FE7C   [8]  7F 00 00 C0 7F 00 00 3F
  can0  0C63FF7C   [8]  00 00 00 00 00 00 00 BF
  can0  10606F01   [3]  00 00 EC
  can0  10607B01   [8]  00 00 00 00 00 00 00 10
  can0  1067D132   [8]  01 00 00 00 80 3F 00 00
  can0  10607B01   [8]  2A FD 7F 3F 35 24 1C B4
  can0  10606F01   [3]  00 00 F2
  can0  10607B01   [8]  28 FD 7F 3F 3E 10 1C B8
  can0  10607B01   [8]  2A FD 7F 3F 35 16 1C B9
  can0  10606F01   [3]  00 00 F3
  can0  10607B01   [8]  28 FD 7F 3F EA 26 1C BA
  can0  10607B01   [8]  2A FD 7F 3F 4E 16 1C BD
  can0  10607B01   [8]  BB 4B 38 B1 3B 86 BC 1D
  can0  107D557C   [8]  1D 00 00 00 02 00 0E FA
  can0  10606F01   [3]  00 00 F9
  can0  10607B01   [8]  2A FD 7F 3F 38 0E 1C A1
  can0  10607B01   [8]  2A FD 7F 3F C2 DA 1B A4
  can0  10607B01   [8]  BB DB 1E B1 3B B2 C2 04
  can0  10607B01   [8]  2A FD 7F 3F DB BB 1B A7
  can0  10607B01   [8]  BB 64 23 B1 3B 5A BD 07
  can0  10606F01   [3]  00 00 FE
  can0  10607B01   [8]  2A FD 7F 3F 13 91 1B AA
  can0  10607B01   [8]  BB E5 1B B1 3B D1 C0 0A
  can0  10607B01   [5]  EB BB FD 66 6A
  can0  10606F01   [3]  00 00 FF
  can0  10607B01   [8]  2A FD 7F 3F 84 98 1B AE
  can0  1067D132   [8]  10 00 CC 5B 00 00 00 24
  can0  1067D132   [8]  40 00 08 00 00 00 00 04
  can0  1067D132   [8]  E0 5B 00 00 BE 1B B5 24
  can0  10607B01   [8]  2A FD 7F 3F D4 91 1B B3
  can0  10607B01   [8]  BB 3D 01 B1 3B 9C AF 13
  can0  10607B01   [8]  2A FD 7F 3F 18 96 1B B5
  can0  10607B01   [8]  2A FD 7F 3F 2B AB 1B B7
  can0  10607B01   [8]  BB 90 10 B1 3B ED A6 17
  can0  10606F01   [3]  00 00 E8
  can0  10607B01   [8]  2A FD 7F 3F DD A7 1B B9
  can0  10606F01   [3]  00 00 EB
  can0  10607B01   [8]  00 00 00 00 00 00 00 BD
  can0  0C63FE7C   [8]  7F 00 00 C0 7F 00 00 22
  can0  0C63FF7C   [8]  00 00 00 00 00 00 00 A2
  can0  0C63FF7C   [8]  00 00 00 00 9E 79 84 02
  can0  10607B01   [8]  00 00 00 00 00 00 00 A0
  can0  10607B01   [8]  2A FD 7F 3F 66 A5 1B A3
  can0  10607B01   [8]  BB 97 0D B1 3B 28 8D 03
  can0  10606F01   [3]  00 00 F1
  can0  10607B01   [8]  00 00 00 00 00 00 00 A6
  can0  10607B01   [8]  00 00 00 00 00 00 00 A9
  can0  10607B01   [8]  00 00 00 00 00 00 00 09
  can0  10607001   [2]  00 EF
  can0  10607B01   [8]  2A FD 7F 3F 52 E1 1B AC
  can0  10607B01   [8]  BB E6 FF B0 3B 17 8F 0F
  can0  0C63FE7C   [8]  00 00 00 00 00 00 00 A3
  can0  1C7D567F   [8]  01 00 00 00 02 40 00 3B
  can0  0C63FE7C   [8]  7F 00 00 C0 7F 00 00 23
  can0  10606F01   [3]  00 00 F9
  can0  10607B01   [8]  00 00 00 00 00 00 00 B3
  can0  10607B01   [8]  2A FD 7F 3F 59 EE 1B B6
  can0  10607B01   [8]  BB 6F 0F B1 3B C3 8B 16
  can0  10606F01   [3]  00 00 FB
  can0  10606F01   [3]  00 00 FD
  can0  10607B01   [8]  2A FD 7F 3F 70 CF 1B BA
  can0  10607B01   [8]  00 00 00 00 00 00 00 BD
  can0  10607B01   [8]  00 00 00 00 00 00 00 1D
  can0  10606F01   [3]  00 00 FF
  can0  10607B01   [8]  00 00 00 00 00 00 00 A0
  can0  10607B01   [8]  00 00 00 00 00 00 00 00
  can0  10606F01   [3]  00 00 E3
  can0  10607B01   [8]  2C FD 7F 3F 3F A6 1B A4
  can0  10607B01   [8]  BB 4E 06 B1 3B 33 75 04
  can0  10607B01   [8]  00 00 00 00 00 00 00 A6
  can0  10607B01   [8]  00 00 00 00 00 00 00 06
  can0  10607B01   [8]  00 00 00 00 00 00 00 A9
  can0  10607B01   [8]  00 00 00 00 00 00 00 09
  can0  10607001   [2]  00 F0
  can0  10607B01   [8]  2A FD 7F 3F E5 DF 1B AD
  can0  1067D132   [8]  B5 62 01 03 10 00 94 2C
  can0  1067D132   [8]  5C 00 00 00 40 00 08 0C
  can0  1067D132   [8]  00 00 00 00 A8 5C 00 2C
  can0  1067D132   [8]  00 50 CD B5 62 01 36 0C
  can0  10606F01   [3]  00 00 EC
  can0  10607B01   [8]  00 00 00 00 00 00 00 B3
  can0  10607B01   [8]  00 00 00 00 00 00 00 B6
  can0  10607B01   [8]  00 00 00 00 00 00 00 16
  can0  10606F01   [3]  00 00 EF
  can0  10607B01   [8]  2A FD 7F 3F 69 48 1C BA
  can0  10607B01   [8]  BB CE 14 B1 3B 03 B6 1A
  can0  10607B01   [8]  00 00 00 00 00 00 00 BD
  can0  10607B01   [8]  00 00 00 00 00 00 00 1D
  can0  10607B01   [8]  00 00 00 00 00 00 00 00
  can0  10606F01   [3]  00 00 F5
  can0  10607B01   [8]  2A FD 7F 3F A5 4E 1C A1
  can0  0C63FF7C   [8]  00 00 00 00 3F 73 84 06
  can0  10607B01   [8]  2A FD 7F 3F C8 4F 1C A4
  can0  10607B01   [8]  BB 7B 03 B1 3B 57 DD 04
  can0  10607B01   [8]  2A FD 7F 3F 38 2A 1C A7
  can0  10607B01   [8]  BB 91 0B B1 3B 5D D5 07
  can0  10607B01   [8]  2A FD 7F 3F 95 EB 1B AA
  can0  10607B01   [8]  BB 43 1C B1 3B 65 E1 0A
  can0  10607001   [2]  00 F1
  can0  10607B01   [8]  2A FD 7F 3F B4 11 1C AD
  can0  1067D132   [8]  00 00 00 80 3F 00 00 10
  can0  1067D132   [7]  80 3F E5 A2 EC 73 70
  can0  1067D332   [8]  00 00 00 00 00 00 00 AE
  can0  1067D332   [8]  00 00 00 00 00 00 00 0E
  can0  10606F01   [3]  00 00 E0
  can0  10607B01   [8]  00 00 00 00 00 00 00 B3
  can0  10607B01   [8]  28 FD 7F 3F DE 10 1C B7
  can0  10607B01   [8]  BB 5B 00 B1 3B 90 23 17
  can0  10607B01   [8]  2A FD 7F 3F 64 FC 1B BA
  can0  10607B01   [8]  BB 63 F8 B0 3B 45 0E 1A
  can0  10606F01   [3]  00 00 E6
  can0  10607B01   [8]  2A FD 7F 3F 1F 10 1C BD
  can0  10607B01   [8]  28 FD 7F 3F D2 03 1C A1
  can0  10607B01   [8]  BB 79 F8 B0 3B 1D 1E 01
  can0  10607B01   [5]  EC BB E6 92 61
  can0  10607B01   [8]  28 FD 7F 3F D9 E5 1B A4
  can0  10607B01   [8]  BB 0A 08 B1 3B C8 18 04
  can0  10606F01   [3]  00 00 EC
  can0  10607B01   [8]  28 FD 7F 3F EB 23 1C A7
  can0  10607B01   [8]  BB 67 10 B1 3B D8 17 07
  can0  10607B01   [8]  28 FD 7F 3F 36 1C 1C AB
  can0  10607B01   [8]  BB 89 10 B1 3B 17 31 0B
  can0  10606F01   [3]  00 00 F0
  can0  10607B01   [8]  28 FD 7F 3F ED 0D 1C AE
  can0  10607B01   [8]  BB A3 0E B1 3B 2D 43 0E
  can0  1067D332   [8]  00 00 00 00 00 00 00 AF
  can0  1067D332   [8]  00 00 00 00 00 00 00 0F
  can0  10607B01   [8]  BB 48 0C B1 3B 97 48 11
  can0  1067D132   [8]  3F 00 00 00 01 01 00 B5
  can0  10606F01   [3]  00 00 F4
  can0  10607B01   [8]  28 FD 7F 3F 2F EB 1B B4
  can0  10607B01   [8]  28 FD 7F 3F 8F A8 1B B7
  can0  10607B01   [8]  BB 65 26 B1 3B F7 3B 17
  can0  10606F01   [3]  00 00 F8
  can0  10607B01   [8]  28 FD 7F 3F 86 A3 1B BA
  can0  10607B01   [8]  00 00 00 00 00 00 00 BE
  can0  10607B01   [8]  00 00 00 00 00 00 00 1E
  can0  10607B01   [8]  28 FD 7F 3F 85 CA 1B A1
  can0  10607B01   [8]  BB 03 07 B1 3B 2F 05 01
  can0  10607B01   [5]  EC BB 1C 39 61
  can0  10607B01   [8]  00 00 00 00 00 00 00 A4
  can0  10607B01   [8]  00 00 00 00 00 00 00 04
  can0  10606F01   [3]  00 00 E0
  can0  10607B01   [8]  2A FD 7F 3F 6F D0 1B A6
  can0  10607B01   [8]  00 00 00 00 00 00 00 AA
  can0  10607B01   [8]  00 00 00 00 00 00 00 0A
  can0  10607B01   [5]  00 00 6A 0A 6A
  can0  10606F01   [3]  00 00 E4
  can0  10607B01   [8]  2A FD 7F 3F 73 61 1B AD
  can0  1067D132   [8]  00 C0 5D 00 00 00 40 3B
  can0  1067D132   [8]  00 08 00 00 00 00 D4 1B
  can0  1067D132   [8]  5D 00 00 AA 4F B5 62 3B
  can0  1067D132   [8]  01 36 40 00 C0 5D 00 1B
  can0  10606F01   [3]  00 00 E8
  can0  10607B01   [8]  2A FD 7F 3F F9 76 1B B3
  can0  0C63FE7C   [8]  00 00 00 00 00 00 00 AB
  can0  0C63FE7C   [8]  00 00 C0 7F 00 00 C0 0B
  can0  0C63FE7C   [5]  00 00 79 27 4B
  can0  10606F01   [3]  00 00 EB
  can0  10607B01   [8]  00 00 00 00 00 00 00 BB
  can0  10606F01   [3]  00 00 EE
  can0  10607B01   [8]  00 00 00 00 00 00 00 BE
  can0  10607B01   [8]  BB CC E4 B0 3B 8D 08 00
  can0  10606F01   [3]  00 00 F0
  can0  10607B01   [8]  2A FD 7F 3F 30 4D 1B A1
  can0  10607B01   [8]  2A FD 7F 3F B8 3E 1B A4
  can0  10607B01   [8]  BB 53 E3 B0 3B 0C 0F 04
  can0  10606F01   [3]  00 00 F4
  can0  10607B01   [8]  2A FD 7F 3F 3A 3C 1B A6
  can0  0C63FD7C   [8]  00 00 00 00 00 00 00 AC
  can0  10607B01   [5]  00 00 6A 0A 6A
  can0  10606F01   [3]  00 00 F7
  can0  10607B01   [8]  2A FD 7F 3F 45 4D 1B AB
  can0  10607B01   [8]  BB 72 E5 B0 3B 58 E6 0D
  can0  10607B01   [8]  2A FD 7F 3F 81 24 1B AE
  can0  1067D132   [8]  5E 00 00 74 31 B5 62 01
  can0  1067D132   [8]  01 36 40 00 24 5E 00 21
  can0  1067D132   [8]  00 00 01 01 00 00 00 01
  can0  10606F01   [3]  00 00 FD
  can0  10607B01   [8]  2A FD 7F 3F 05 18 1B B5
  can0  10607B01   [8]  2A FD 7F 3F D1 FD 1A B8
  can0  10607B01   [8]  BB A4 06 B1 3B 92 11 18
  can0  10606F01   [3]  00 00 E0
  can0  10607B01   [8]  2A FD 7F 3F 94 C6 1A BB
  can0  10607B01   [8]  2A FD 7F 3F C3 EA 1A BF
  can0  10607B01   [8]  BB C3 ED B0 3B 75 E6 1F
  can0  10607B01   [5]  EB BB 97 2B 7F
  can0  10607B01   [8]  2A FD 7F 3F 76 ED 1A A2
  can0  10607B01   [8]  BB 3E F6 B0 3B 5F EF 02
  can0  10607B01   [8]  2A FD 7F 3F BD D7 1A A5
  can0  10607B01   [8]  BB 3C FF B0 3B 41 02 05
  can0  10607B01   [5]  EC BB 17 63 65
  can0  10606F01   [3]  00 00 E7
  can0  10607B01   [8]  00 00 00 00 00 00 00 A7
  can0  10607B01   [8]  00 00 00 00 00 00 00 07
  can0  10607B01   [5]  00 00 6A 0A 67
  can0  10606F01   [3]  00 00 E9
  can0  0C63FF7C   [8]  00 00 00 00 67 C5 84 0E
  can0  10607B01   [8]  2A FD 7F 3F DF B4 1A AB
  can0  10607B01   [8]  2A FD 7F 3F DF C3 1A AE
  can0  1067D132   [8]  00 00 00 00 00 00 00 24
  can0  10607B01   [8]  2A FD 7F 3F F0 B7 1A B1
  can0  10607B01   [8]  BB 9D 2E B1 3B BC DB 11
  can0  1067D132   [8]  00 9C 5E 00 00 3C 01 24
  can0  10606F01   [3]  00 00 F0
  can0  10606F01   [3]  00 00 F2
  can0  10607B01   [8]  2A FD 7F 3F 53 BF 1A B8
  can0  0C63FE7C   [8]  00 00 00 00 00 00 00 AF
  can0  0C63FE7C   [8]  00 00 C0 7F 00 00 C0 0F
  can0  0C63FE7C   [5]  00 00 79 27 4F
  can0  0C63FF7C   [8]  00 00 00 00 47 C7 84 0F
  can0  10607B01   [8]  2A FD 7F 3F FB A3 1A BF
  can0  10607B01   [8]  BB 99 1A B1 3B 53 B3 1F
  can0  10607B01   [8]  2A FD 7F 3F 63 D0 1A A2
  can0  10607B01   [8]  BB ED 12 B1 3B FD A7 02
  can0  10606F01   [3]  00 00 FB
  can0  10607B01   [8]  00 00 00 00 00 00 00 A6
  can0  10607B01   [8]  00 00 00 00 00 00 00 A9
  can0  10607B01   [8]  00 00 00 00 00 00 00 09
  can0  10607B01   [8]  2A FD 7F 3F 00 B6 1A AC
  can0  10607B01   [8]  BB A2 09 B1 3B 04 E7 0C
  can0  10607B01   [5]  EB BB 52 6B 6C
  can0  10606F01   [3]  00 00 E1
  can0  10607B01   [8]  00 00 00 00 00 00 00 AF
  can0  1067D132   [8]  55 00 00 00 00 87 04 69
  can0  1067D332   [8]  00 00 00 00 00 00 00 B3
  can0  1067D332   [8]  00 00 00 00 00 00 00 13
  can0  1067D332   [8]  00 00 00 00 00 00 00 33
  can0  10606F01   [3]  00 00 E4
  can0  10607B01   [8]  2A FD 7F 3F 7D DB 1A B5
  can0  10607B01   [8]  29 FD 7F 3F 60 A1 1A B9
  can0  10607B01   [8]  BB 3F 0C B1 3B E4 63 19
  can0  10607B01   [5]  EC BB 60 57 79
  can0  10607B01   [8]  00 00 00 00 00 00 00 BB
  can0  10607B01   [8]  00 00 00 00 00 00 00 1B
  can0  10607B01   [8]  00 00 00 00 00 00 00 BE
  can0  10607B01   [8]  00 00 00 00 00 00 00 1E
  can0  10606F01   [3]  00 00 EB
  can0  10607B01   [8]  29 FD 7F 3F F6 8B 1A A1
  can0  10607B01   [8]  BB 68 17 B1 3B 59 2C 01
  can0  10607B01   [8]  00 00 00 00 00 00 00 A4
  can0  10607B01   [8]  00 00 00 00 00 00 00 04
  can0  10606F01   [3]  00 00 F0
  can0  10607B01   [8]  00 00 00 00 00 00 00 A7
  can0  10607B01   [8]  29 FD 7F 3F 7D 91 1A AA
  can0  10607B01   [8]  29 FD 7F 3F 31 8F 1A AB
  can0  10607B01   [8]  BB 13 13 B1 3B DA 2D 0B
  can0  0C63FF7C   [8]  00 00 00 00 08 C7 84 12
  can0  10607B01   [8]  29 FD 7F 3F D0 85 1A AE
  can0  10607B01   [8]  BB 46 22 B1 3B 6D 3A 0E
  can0  1067D132   [8]  01 00 00 00 80 3F 00 2D
  can0  1067D132   [8]  00 80 3F E5 A2 4C 55 0D
  can0  1067D132   [8]  00 00 00 00 00 00 00 2D
  can0  10606F01   [3]  00 00 F9
  can0  10607B01   [8]  29 FD 7F 3F 1B 2F 1A B5
  can0  10607B01   [8]  29 FD 7F 3F CF 2E 1A B8
  can0  10607B01   [8]  BB 1E 3B B1 3B CB 0C 18
  can0  10607B01   [8]  00 00 00 00 00 00 00 BB
  can0  10607B01   [8]  00 00 00 00 00 00 00 1B
  can0  10607B01   [5]  00 00 6A 0A 7E
  can0  0C63FE7C   [8]  00 00 00 00 00 00 00 B3
  can0  0C63FE7C   [8]  7F 00 00 C0 7F 00 00 33
  can0  0C63FF7C   [8]  00 00 00 00 00 00 00 B3
  can0  10607B01   [8]  29 FD 7F 3F 38 4A 1A BF
  can0  107D557C   [8]  1E 00 00 00 02 00 0E FB
  can0  10606F01   [3]  00 00 E2
  can0  10607B01   [8]  29 FD 7F 3F AC 43 1A A5
  can0  10607B01   [8]  29 FD 7F 3F 4F 43 1A A9
  can0  10607B01   [8]  BB 4F 3A B1 3B 28 31 09
  can0  10607B01   [8]  29 FD 7F 3F F6 34 1A AC
  can0  10607B01   [8]  BB CA 41 B1 3B 27 28 0C
  can0  10606F01   [3]  00 00 E8
  can0  10607B01   [8]  29 FD 7F 3F CB 09 1A AF
  can0  0C63FD7C   [8]  00 00 00 00 00 00 00 B4
  can0  1067D132   [8]  69 00 00 00 00 00 00 B2
  can0  1067D132   [8]  00 00 3C A0 B5 62 01 12
  can0  1067D132   [8]  03 10 00 B4 5F 00 00 32
  can0  10607B01   [8]  2B FD 7F 3F 7A 57 1A B5
  can0  10607B01   [8]  BB 1F 27 B1 3B C8 06 15
  can0  10607B01   [8]  29 FD 7F 3F 01 2E 1A B8
  can0  10607B01   [8]  BB 6A 2C B1 3B 21 1B 18
  can0  10606F01   [3]  00 00 F0
  can0  10607B01   [8]  29 FD 7F 3F 11 F4 19 BB
  can0  10607B01   [8]  29 FD 7F 3F 6B EF 19 BF
  can0  10607B01   [8]  BB A9 44 B1 3B 00 47 1F
  can0  10606F01   [3]  00 00 F4
  can0  10607B01   [8]  29 FD 7F 3F 39 B5 19 A2
  can0  10607B01   [8]  BB 3C 46 B1 3B 7C 3B 02
  can0  10606F01   [3]  00 00 F6
  can0  10607B01   [8]  BB A4 34 B1 3B CF 37 04
  can0  10607B01   [8]  00 00 00 00 00 00 00 A5
  can0  10607B01   [8]  29 FD 7F 3F 2C 71 19 A8
  can0  10607B01   [8]  BB 48 46 B1 3B E2 1C 08
  can0  10606F01   [3]  00 00 FA
  can0  10607B01   [8]  29 FD 7F 3F C7 69 19 AB
  can0  10606F01   [3]  00 00 FC
  can0  10607B01   [8]  29 FD 7F 3F 98 6C 19 AE
  can0  10607B01   [8]  BB 34 37 B1 3B 2F 0B 0E
  can0  10607B01   [8]  2B FD 7F 3F 86 75 19 B1
  can0  0C63FD7C   [8]  00 00 00 00 00 00 00 B6
  can0  0C63FE7C   [8]  00 00 00 00 00 00 00 B6
  can0  1C7D567F   [8]  00 00 00 00 00 00 00 1C
  can0  1C7D567F   [8]  00 00 00 00 00 00 00 1C
  can0  1C7D567F   [8]  00 00 00 00 00 00 00 3C
  can0  10607B01   [8]  00 00 00 00 00 00 00 B9
  can0  10607B01   [8]  00 00 00 00 00 00 00 19
  can0  10606F01   [3]  00 00 E4
  can0  10607B01   [8]  29 FD 7F 3F 9A 72 19 BB
  can0  10606F01   [3]  00 00 E6
  can0  10607B01   [8]  2B FD 7F 3F 41 71 19 BE
  can0  10606F01   [3]  00 00 E8
  can0  10607B01   [8]  2B FD 7F 3F 4D 9E 19 A1
  can0  10607B01   [8]  00 00 00 00 00 00 00 A5
  can0  10607B01   [8]  00 00 00 00 00 00 00 05
  can0  10607B01   [8]  2B FD 7F 3F 2A A8 19 A7
  can0  10607B01   [8]  BB 86 39 B1 3B 72 F7 07
  can0  10607B01   [5]  EB BB 35 22 67
  can0  10606F01   [3]  00 00 EF
  can0  10607B01   [8]  2B FD 7F 3F DD C0 19 AB
  can0  10607B01   [8]  BB 25 3C B1 3B 5F F3 0B
  can0  10606F01   [3]  00 00 F0
  can0  10607B01   [8]  2B FD 7F 3F 0E BE 19 AD
  can0  1067D132   [8]  00 00 00 01 01 00 00 3A
  can0  1067D132   [8]  00 80 3F 00 00 E9 BD 5A
  can0  10607B01   [8]  00 00 00 00 00 00 00 B1
  can0  10607B01   [8]  00 00 00 00 00 00 00 11
  can0  10606F01   [3]  00 00 F4
  can0  10607B01   [8]  29 FD 7F 3F 03 D7 19 B4
  can0  10607B01   [8]  29 FD 7F 3F BA E8 19 B5
  can0  10607B01   [8]  00 00 00 00 00 00 00 B8
  can0  10607B01   [8]  29 FD 7F 3F 1D D8 19 BA
  can0  10607B01   [8]  BB 27 45 B1 3B F8 F8 1A
  can0  10607B01   [8]  2B FD 7F 3F 54 D1 19 BE
  can0  10607B01   [8]  BB C3 40 B1 3B 44 02 1E
  can0  10607B01   [5]  EC BB EB D7 7E
  can0  10606F01   [3]  00 00 FC
  can0  10607B01   [8]  29 FD 7F 3F EC C8 19 A0
  can0  10606F01   [3]  00 00 FE
  can0  10607B01   [8]  00 00 00 00 00 00 00 A4
  can0  10607B01   [8]  29 FD 7F 3F BF B5 19 A6
  can0  10607B01   [8]  BB B7 60 B1 3B 3B 09 06
  can0  10607B01   [5]  EC BB A4 DD 66
  can0  10607B01   [8]  29 FD 7F 3F 1D 97 19 AA
  can0  10607B01   [8]  BB 27 62 B1 3B 63 27 0A
  can0  10607B01   [5]  EC BB A1 16 6A
  can0  10606F01   [3]  00 00 E4
  can0  10607B01   [8]  00 00 00 00 00 00 00 AD
  can0  10607B01   [8]  00 00 00 00 00 00 00 10
  can0  1067D132   [8]  01 36 40 00 E0 60 00 1E
  can0  1067D132   [8]  00 00 01 01 00 00 00 3E
  can0  1067D132   [8]  80 3F 00 00 80 3F E5 1E
  can0  0C63FE7C   [5]  00 00 79 27 5A
  can0  0C63FF7C   [8]  00 00 00 00 D5 9F 84 1A
  can0  10606F01   [3]  00 00 E8
  can0  10606F01   [3]  00 00 EA
  can0  10607B01   [8]  29 FD 7F 3F 8A 52 19 BA
  can0  10607B01   [8]  BB 12 79 B1 3B 75 59 1A
  can0  10607B01   [8]  27 FD 7F 3F 1C 69 19 BD
  can0  10607B01   [8]  BB DD 8D B1 3B 99 69 1D
  can0  10607B01   [8]  27 FD 7F 3F A4 78 19 A0
  can0  10607B01   [8]  BB F6 A0 B1 3B 96 63 00
  can0  10607B01   [5]  EC BB F2 37 60
  can0  0C63FD7C   [4]  00 31 3E 5B
  can0  0C63FE7C   [8]  00 00 C0 7F 00 00 C0 1B
  can0  0C63FE7C   [8]  7F 00 00 C0 7F 00 00 3B
  can0  0C63FF7C   [8]  00 00 00 00 00 00 00 BB
  can0  10606F01   [3]  00 00 F3
  can0  10607B01   [8]  27 FD 7F 3F F9 81 19 A7
  can0  10606F01   [3]  00 00 F6
  can0  10607B01   [8]  27 FD 7F 3F 76 69 19 AA
  can0  10606F01   [3]  00 00 F8
  can0  10607B01   [8]  00 00 00 00 00 00 00 AE
  can0  10607B01   [8]  00 00 00 00 00 00 00 0E
  can0  1067D132   [8]  01 36 40 00 44 61 00 02
  can0  1067D132   [8]  00 00 01 01 00 00 00 22
  can0  1067D132   [8]  80 3F 00 00 80 3F E5 02
  can0  10606F01   [3]  00 00 FC
  can0  10607B01   [8]  27 FD 7F 3F D9 7E 19 B3
  can0  10607B01   [8]  00 00 00 00 00 00 00 B7
  can0  10607B01   [8]  00 00 00 00 00 00 00 17
  can0  10607B01   [8]  00 00 00 00 00 00 00 BA
  can0  10607B01   [8]  00 00 00 00 00 00 00 1A
  can0  10607B01   [8]  25 FD 7F 3F 0D 78 19 BD
  can0  10607B01   [8]  BB 24 D9 B1 3B E5 B3 1D
  can0  1067D132   [8]  09 00 B5 62 0A 09 3C A3
  can0  10606F01   [3]  00 00 E4
  can0  10607B01   [8]  25 FD 7F 3F 96 73 19 A0
  can0  10607B01   [8]  00 00 00 00 00 00 00 A4
  can0  10607B01   [8]  00 00 00 00 00 00 00 04
  can0  10607B01   [5]  00 00 6A 0A 64
  can0  10606F01   [3]  00 00 E8
  can0  10607B01   [8]  27 FD 7F 3F 80 83 19 A7
  can0  10607B01   [8]  00 00 00 00 00 00 00 AB
  can0  10607B01   [8]  00 00 00 00 00 00 00 0B
  can0  10607B01   [5]  00 00 6A 0A 6B
  can0  10607B01   [8]  00 00 00 00 00 00 00 AE
  can0  10607B01   [8]  00 00 00 00 00 00 00 0E
  can0  1067D132   [8]  00 A8 61 00 00 00 01 08
  can0  1067D132   [8]  01 00 00 00 80 3F 00 28
  can0  1067D132   [8]  00 80 3F E5 A2 4C 55 08
  can0  10607B01   [8]  27 FD 7F 3F 5F 2B 19 B1
  can0  10607B01   [8]  00 00 00 00 00 00 00 14
  can0  10607001   [2]  00 FD
  can0  0C63FE7C   [8]  7F 00 00 C0 7F 00 00 3E
  can0  0C63FE7C   [5]  00 00 79 27 5E
  can0  0C63FF7C   [8]  00 00 00 00 C5 AB 84 1E
  can0  10607B01   [8]  00 00 00 00 00 00 00 BB
  can0  10607B01   [5]  EC BB 03 E1 7E
  can0  10606F01   [3]  00 00 F7
  can0  10607B01   [8]  27 FD 7F 3F C5 CB 18 BF
  can0  10607B01   [8]  00 00 00 00 00 00 00 A1
  can0  10607B01   [8]  00 00 00 00 00 00 00 01
  can0  10606F01   [3]  00 00 FA
  can0  10607B01   [8]  00 00 00 00 00 00 00 A4
  can0  0C63FE7C   [8]  00 00 00 00 00 00 00 BF
  can0  0C63FE7C   [8]  7F 00 00 C0 7F 00 00 3F
  can0  0C63FF7C   [8]  00 00 00 00 00 00 00 BF
  can0  0C63FF7C   [8]  00 00 00 00 B6 C0 84 1F
  can0  10607B01   [8]  29 FD 7F 3F C7 69 18 A8
  can0  10607B01   [8]  29 FD 7F 3F 59 6B 18 AB
  can0  10607B01   [8]  BB DE A0 B1 3B 0A 36 0B
  can0  10606F01   [3]  00 00 E0
  can0  10607B01   [8]  00 00 00 00 00 00 00 11
  can0  1067D132   [8]  00 00 00 00 00 00 24 2D
  can0  1067D132   [8]  AF B5 62 01 03 10 00 0D
  can0  10607001   [2]  00 FE
  can0  10607B01   [8]  29 FD 7F 3F 6F 5F 18 B5
  can0  10607B01   [8]  BB D3 C2 B1 3B 8F 34 15
  can0  10607B01   [8]  00 00 00 00 00 00 00 B7
  can0  10607B01   [8]  00 00 00 00 00 00 00 17
  can0  10607B01   [5]  00 00 6A 0A 7A
  can0  10607B01   [8]  29 FD 7F 3F 02 26 18 BB
  can0  10607B01   [8]  BB 6E B2 B1 3B 66 39 1B
  can0  10607B01   [8]  29 FD 7F 3F 2E 0D 18 BE
  can0  10607B01   [8]  BB E7 A9 B1 3B A2 42 1E
  can0  10606F01   [3]  00 00 EC
  can0  10607B01   [8]  00 00 00 00 00 00 00 A1
  can0  10607B01   [8]  29 FD 7F 3F 18 F6 17 A5
  can0  10607B01   [8]  BB 5B C0 B1 3B 57 1E 05
  can0  10607B01   [8]  29 FD 7F 3F 3A FA 17 A8
  can0  10607B01   [8]  BB D4 C8 B1 3B 8E 11 08
  can0  10607B01   [5]  EC BB 42 F6 68
  can0  10606F01   [3]  00 00 F2
  can0  10607B01   [8]  29 FD 7F 3F D1 08 18 AA
  can0  10607B01   [8]  29 FD 7F 3F B2 16 18 AE
  can0  10607B01   [8]  BB CF E0 B1 3B 15 1D 0E
  can0  10607B01   [5]  EC BB 8A 23 6E
  can0  1067D132   [8]  40 00 08 00 00 00 00 11
  can0  1067D132   [8]  84 62 00 00 14 69 B5 31
  can0  1067D132   [8]  62 01 36 40 00 70 62 11
  can0  10607B01   [8]  29 FD 7F 3F B2 C7 17 B4
  can0  10607B01   [8]  BB 66 DB B1 3B 36 3E 14
  can0  10606F01   [3]  00 00 FA
  can0  10607B01   [8]  00 00 00 00 00 00 00 B6
  can0  0C63FF7C   [4]  40 FA B1 62
  can0  10607B01   [8]  29 FD 7F 3F 90 BD 17 BA
  can0  10607B01   [8]  BB DD E7 B1 3B 2B 39 1A
  can0  10606F01   [3]  00 00 FE
  can0  10607B01   [8]  27 FD 7F 3F 0C 9F 17 BD
  can0  10606F01   [3]  00 00 E0
  can0  10607B01   [8]  29 FD 7F 3F 84 98 17 A0
  can0  10607B01   [8]  29 FD 7F 3F D6 77 17 A3
  can0  10607B01   [8]  BB 53 EA B1 3B 8F 33 03
  can0  10606F01   [3]  00 00 E4
  can0  10607B01   [8]  29 FD 7F 3F 59 B2 17 A6
  can0  10607B01   [8]  BB 56 00 B2 3B 72 39 06
  can0  10606F01   [3]  00 00 E6
  can0  10607B01   [8]  29 FD 7F 3F 9D F1 17 A9
  can0  10606F01   [3]  00 00 E8
  can0  10607B01   [8]  00 00 00 00 00 00 00 AC
  can0  10607B01   [8]  00 00 00 00 00 00 00 0C
  can0  1067D132   [8]  00 00 00 00 A6 09 B5 35
  can0  1067D132   [8]  62 01 03 10 00 D4 62 15
  can0  1067D132   [8]  00 00 00 40 00 08 00 35
  can0  1067D132   [8]  00 00 00 E8 62 00 00 15
  can0  10606F01   [3]  00 00 EC
  can0  10607B01   [8]  29 FD 7F 3F 9A F9 17 B3
  can0  10607B01   [8]  BB 1A ED B1 3B 0C 18 16
  can0  10607B01   [8]  00 00 00 00 00 00 00 B7
  can0  10606F01   [3]  00 00 F0
  can0  10607B01   [8]  29 FD 7F 3F 10 B5 17 BA
  can0  10607B01   [8]  00 00 00 00 00 00 00 BE
  can0  10607B01   [8]  00 00 00 00 00 00 00 1E
  can0  10607B01   [5]  00 00 6A 0A 7E
  can0  10606F01   [3]  00 00 F4
  can0  10607B01   [8]  29 FD 7F 3F 41 76 17 A0
  can0  10606F01   [3]  00 00 F6
  can0  10607B01   [8]  00 00 00 00 00 00 00 A4
  can0  10606F01   [3]  00 00 F8
  can0  10607B01   [8]  29 FD 7F 3F 3A FA 17 A7
  can0  10607B01   [8]  BB 1A C9 B1 3B FD F3 07
  can0  10607B01   [8]  00 00 00 00 00 00 00 AB
  can0  10607B01   [8]  00 00 00 00 00 00 00 0B
  can0  10607B01   [5]  00 00 6A 0A 6B
  can0  10607B01   [8]  29 FD 7F 3F 4B 14 18 AD
  can0  10607B01   [8]  BB C2 C5 B1 3B 96 08 0D
  can0  10606F01   [3]  00 00 FC
  can0  1067D132   [8]  80 3F 00 00 80 3F E5 19
  can0  1067D132   [8]  A2 4C 55 00 00 00 00 39
  can0  1067D132   [8]  00 00 00 00 E5 A2 4C 19
  can0  10606F01   [3]  00 00 E0
  can0  10606F01   [3]  00 00 E2
  can0  10607001   [2]  00 E1
  can0  10607B01   [8]  29 FD 7F 3F CD 33 18 BA
  can0  10607B01   [8]  BB 69 98 B1 3B 39 4B 1A
  can0  10607B01   [5]  EC BB BB F8 7A
  can0  10606F01   [3]  00 00 E4
  can0  10607B01   [8]  29 FD 7F 3F BE F9 17 BE
  can0  10607B01   [8]  BB 16 99 B1 3B B6 1E 1E
  can0  10607B01   [8]  29 FD 7F 3F E3 37 18 A0
  can0  10607B01   [8]  BB 3F 9A B1 3B 44 26 00
  can0  10607B01   [5]  EC BB 1D 0C 60
  can0  10607B01   [8]  00 00 00 00 00 00 00 A1
  can0  10606F01   [3]  00 00 EA
  can0  10607B01   [8]  29 FD 7F 3F 25 4A 18 A8
  can0  10607B01   [8]  BB 0E 7E B1 3B 18 33 08
  can0  10606F01   [3]  00 00 EE
  can0  10607B01   [8]  00 00 00 00 00 00 00 AB
  can0  10607B01   [8]  00 00 00 00 00 00 00 0B
  can0  10607B01   [8]  29 FD 7F 3F 7C 4A 18 AD
  can0  0C63FD7C   [4]  00 31 3E 47
  can0  0C63FE7C   [8]  00 00 C0 7F 00 00 C0 07
  can0  0C63FE7C   [8]  7F 00 00 C0 7F 00 00 27
  can0  1067D132   [8]  00 6E EB B5 62 01 36 1E
  can0  1067D132   [8]  40 00 9C 63 00 00 00 3E
  can0  10606F01   [3]  00 00 F4
  can0  10607B01   [8]  29 FD 7F 3F ED 2D 18 B5
  can0  10607001   [2]  00 E2
  can0  10607B01   [8]  29 FD 7F 3F BF 2B 18 B9
  can0  10607B01   [8]  BB F1 64 B1 3B 9A 3E 19
  can0  10607B01   [8]  29 FD 7F 3F 0B 37 18 BC
  can0  10607B01   [8]  BB D2 6C B1 3B F3 49 1C
  can0  10606F01   [3]  00 00 FA
  can0  10607B01   [8]  2B FD 7F 3F D1 16 18 BF
  can0  10607B01   [8]  00 00 00 00 00 00 00 02
  can0  10607B01   [5]  00 00 6A 0A 62
  can0  10606F01   [3]  00 00 FD
  can0  10607B01   [8]  29 FD 7F 3F 49 0A 18 A4
  can0  10607B01   [8]  29 FD 7F 3F 1E 25 18 A6
  can0  10607B01   [8]  BB 71 96 B1 3B FE 15 06
  can0  10606F01   [3]  00 00 E0
  can0  10607B01   [8]  29 FD 7F 3F 45 51 18 A9
  can0  10607B01   [8]  29 FD 7F 3F E4 62 18 AC
  can0  10607B01   [8]  00 00 00 00 00 00 00 AD
  can0  10607B01   [8]  00 00 00 00 00 00 00 0D
  can0  10607B01   [8]  29 FD 7F 3F 49 5B 18 B0
  can0  10607B01   [8]  BB 93 8B B1 3B 4A 1B 10
  can0  1067D132   [8]  00 00 64 00 00 00 40 21
  can0  1067D132   [8]  00 08 00 00 00 00 14 01
  can0  1067D132   [8]  64 00 00 38 CD B5 62 21
  can0  1067D132   [8]  01 36 40 00 00 64 00 01
  can0  10607B01   [8]  29 FD 7F 3F 9C 64 18 B5
  can0  10607B01   [8]  BB 07 7C B1 3B 33 2C 15
  can0  10607B01   [8]  29 FD 7F 3F D2 74 18 B9
  can0  10607B01   [8]  BB 90 87 B1 3B C3 2C 19
  can0  10606F01   [3]  00 00 EC
  can0  10607B01   [8]  29 FD 7F 3F 37 86 18 BC
  can0  10606F01   [3]  00 00 EF
  can0  10607B01   [8]  00 00 00 00 00 00 00 A0
  can0  10607B01   [8]  00 00 00 00 00 00 00 00
  can0  0C63FE7C   [5]  00 00 79 27 4A
  can0  0C63FF7C   [8]  00 00 00 00 71 BB 84 0A
  can0  10607B01   [8]  00 00 00 00 00 00 00 A3
  can0  10606F01   [3]  00 00 F2
  can0  10607B01   [8]  29 FD 7F 3F B0 61 18 A6
  can0  10607B01   [5]  EC BB 13 67 69
  can0  10607B01   [8]  00 00 00 00 00 00 00 AA
  can0  10607B01   [8]  00 00 00 00 00 00 00 0A
  can0  10607B01   [8]  00 00 00 00 00 00 00 AD
  can0  10607B01   [8]  00 00 00 00 00 00 00 0D
  can0  10606F01   [3]  00 00 F8
  can0  10607B01   [8]  29 FD 7F 3F F2 35 18 B0
  can0  0C63FE7C   [8]  00 00 00 00 00 00 00 AB
  can0  0C63FE7C   [8]  00 00 C0 7F 00 00 C0 0B
  can0  0C63FE7C   [5]  00 00 79 27 4B
  can0  10606F01   [3]  00 00 FC
  can0  10607B01   [8]  00 00 00 00 00 00 00 B6
  can0  10606F01   [3]  00 00 FE
  can0  10607B01   [8]  00 00 00 00 00 00 00 B9
  can0  10607B01   [8]  2B FD 7F 3F B6 6C 18 BD
  can0  10607B01   [8]  BB 5E 88 B1 3B 29 F5 1D
  can0  10607B01   [5]  EB BB 2A BC 7D
  can0  10606F01   [3]  00 00 E2
  can0  10607B01   [8]  00 00 00 00 00 00 00 A0
  can0  107D5632   [8]  00 00 00 00 00 00 00 05
  can0  107D5632   [8]  00 00 00 00 00 00 00 25
  can0  107D5632   [8]  00 00 40 08 00 00 00 05
  can0  107D5632   [8]  00 00 00 00 00 00 4A 25
  can0  10607B01   [8]  2B FD 7F 3F E4 BA 18 A7
  can0  10607B01   [8]  BB 17 90 B1 3B 4A DE 07
  can0  10606F01   [3]  00 00 E8
  can0  10607B01   [8]  00 00 00 00 00 00 00 AA
  can0  10606F01   [3]  00 00 EA
  can0  10607B01   [8]  00 00 00 00 00 00 00 AD
  can0  1067D132   [8]  08 00 B5 62 01 07 5C A8
  can0  10607B01   [8]  29 FD 7F 3F 65 F6 18 B1
  can0  1067D132   [6]  00 C8 64 20 CA 48
  can0  1067D132   [8]  B5 62 01 36 40 00 C8 0A
  can0  1067D132   [8]  64 00 00 00 01 01 00 2A
  can0  1067D132   [8]  00 00 80 3F 00 00 80 0A
  can0  1067D132   [8]  3F E5 A2 4C 55 00 00 2A
  can0  10606F01   [3]  00 00 F0
  can0  10607B01   [8]  29 FD 7F 3F D5 00 19 B7
  can0  10607B01   [8]  00 00 00 00 00 00 00 B9
  can0  10607B01   [8]  00 00 00 00 00 00 00 19
  can0  10607B01   [8]  29 FD 7F 3F D3 35 19 BA
  can0  10606F01   [3]  00 00 F4
  can0  10607001   [2]  00 E5
  can0  10606F01   [3]  00 00 F6
  can0  10607B01   [8]  29 FD 7F 3F 9C 5D 19 A0
  can0  10607B01   [8]  29 FD 7F 3F 62 45 19 A4
  can0  10607B01   [8]  BB 47 B3 B1 3B 2F DB 04
  can0  10606F01   [3]  00 00 FA
  can0  10607B01   [8]  29 FD 7F 3F 1F 2B 19 A7
  can0  10606F01   [3]  00 00 FC
  can0  10607B01   [8]  2B FD 7F 3F 06 30 19 AA
  can0  10607B01   [8]  BB 16 89 B1 3B CC D9 0A
  can0  10607B01   [8]  2B FD 7F 3F 38 2A 19 AE
  can0  10607B01   [8]  BB 1C 76 B1 3B EB CD 0E
  can0  10606F01   [3]  00 00 E0
  can0  10607B01   [8]  2B FD 7F 3F 2C 2C 19 B1
  can0  10607B01   [8]  BB DA 75 B1 3B E6 CE 11
  can0  1067D132   [8]  00 00 00 80 3F 00 00 2F
  can0  1067D132   [8]  80 3F E5 A2 4C 55 00 0F
  can0  1067D132   [8]  00 00 00 00 00 00 00 2F
  can0  10607B01   [5]  00 00 6A 0A 77
  can0  10606F01   [3]  00 00 E4
  can0  10606F01   [3]  00 00 E6
  can0  10607B01   [8]  2B FD 7F 3F 4A ED 18 BB
  can0  10606F01   [3]  00 00 E8
  can0  10607B01   [8]  2B FD 7F 3F E6 27 19 BE
  can0  10607B01   [8]  BB A0 72 B1 3B E7 98 1E
  can0  10606F01   [3]  00 00 EA
  can0  10607B01   [8]  2B FD 7F 3F D2 0C 19 A0
  can0  10606F01   [3]  00 00 EC
  can0  10607B01   [8]  2B FD 7F 3F 1A F2 18 A4
  can0  10607B01   [8]  BB FA A1 B1 3B AD 96 04
  can0  10607B01   [8]  2B FD 7F 3F 28 07 19 A6
  can0  10607B01   [8]  BB 86 A9 B1 3B 2E 8F 06
  can0  10607B01   [8]  2B FD 7F 3F 03 EC 18 A9
  can0  10607B01   [8]  BB 19 A5 B1 3B DA 82 09
  can0  10607B01   [5]  EB BB B2 DB 69
  can0  10606F01   [3]  00 00 F2
  can0  10607B01   [8]  2B FD 7F 3F 6D 19 19 AC
  can0  10607B01   [8]  2B FD 7F 3F 90 46 19 AF
  can0  10607B01   [8]  BB 41 C9 B1 3B 67 67 0F
  can0  10607B01   [5]  EB BB D3 44 6F
  can0  1067D132   [8]  03 10 00 90 65 00 00 36
  can0  1067D132   [8]  00 40 00 08 00 00 00 16
  can0  1067D132   [8]  00 A4 65 00 00 5A 1F 36
  can0  1067D132   [8]  B5 62 01 36 40 B2 B7 56
  can0  10606F01   [3]  00 00 F7
  can0  10607B01   [8]  2B FD 7F 3F 1D 6D 19 B5
  can0  10607B01   [8]  2B FD 7F 3F 2E 95 19 B8
  can0  10607B01   [8]  BB F3 AD B1 3B 0A A1 18
  can0  10606F01   [3]  00 00 FB
  can0  10607B01   [8]  2B FD 7F 3F 03 A4 19 BB
  can0  10607B01   [8]  BB B4 A8 B1 3B D5 99 1B
  can0  10607B01   [8]  00 00 00 00 00 00 00 BF
  can0  10607B01   [8]  00 00 00 00 00 00 00 1F
  can0  10607B01   [5]  00 00 6A 0A 61
  can0  10607B01   [8]  2B FD 7F 3F FE B5 19 A2
  can0  10606F01   [3]  00 00 E2
  can0  10607B01   [8]  29 FD 7F 3F 27 BB 19 A6
  can0  10607B01   [8]  BB 43 A4 B1 3B 92 D9 06
  can0  10606F01   [3]  00 00 E3
  can0  10607B01   [8]  29 FD 7F 3F F2 C1 19 A8
  can0  10607B01   [8]  00 00 00 00 00 00 00 AB
  can0  10607B01   [8]  00 00 00 00 00 00 00 0B
  can0  10607B01   [5]  00 00 6A 0A 6B
  can0  10606F01   [3]  00 00 E7
  can0  10607B01   [8]  00 00 00 00 00 00 00 AD
  can0  1067D132   [8]  36 40 00 F4 65 00 00 1A
  can0  1067D132   [8]  00 01 01 00 00 00 80 3A
  can0  1067D132   [8]  3F 00 00 80 3F E5 A2 1A
  can0  1067D132   [8]  4C 55 00 00 00 00 00 3A
  can0  10606F01   [3]  00 00 EB
  can0  10607B01   [8]  29 FD 7F 3F 52 CB 19 B4
  can0  10607B01   [5]  EB BB C3 FF 77
  can0  10606F01   [3]  00 00 EE
  can0  10607B01   [8]  29 FD 7F 3F F3 D9 19 B8
  can0  10606F01   [3]  00 00 EF
  can0  10607B01   [8]  29 FD 7F 3F 13 CF 19 BA
  can0  10607001   [2]  00 E8
  can0  10607B01   [8]  00 00 00 00 00 00 00 BE
  can0  10606F01   [3]  00 00 F3
  can0  10607B01   [8]  00 00 00 00 00 00 00 A1
  can0  10607B01   [8]  00 00 00 00 00 00 00 01
  can0  10607B01   [8]  29 FD 7F 3F 71 FE 19 A5
  can0  10607B01   [8]  BB C3 C0 B1 3B 83 AD 05
  can0  10607B01   [8]  00 00 00 00 00 00 00 A8
  can0  10607B01   [8]  00 00 00 00 00 00 00 08
  can0  10606F01   [3]  00 00 F9
  can0  10607B01   [8]  00 00 00 00 00 00 00 AB
  can0  10607B01   [8]  00 00 00 00 00 00 00 0B
  can0  10606F01   [3]  00 00 FA
  can0  10607B01   [8]  29 FD 7F 3F 09 2B 1A AF
  can0  10607B01   [8]  BB 1E D7 B1 3B C6 9B 0F
  can0  1067D132   [8]  27 00 00 F8 4A 23 00 1D
  can0  1067D132   [8]  00 00 00 00 00 00 00 3D
  can0  1067D132   [8]  00 50 E3 B5 62 01 03 1D
  can0  10606F01   [3]  00 00 FF
  can0  10607B01   [8]  00 00 00 00 00 00 00 B5
  can0  10607B01   [8]  00 00 00 00 00 00 00 15
  can0  10606F01   [3]  00 00 E0
  can0  0C63FF7C   [8]  00 00 00 00 13 CB 84 15
  can0  10607B01   [8]  29 FD 7F 3F F6 8C 1A B9
  can0  10607B01   [8]  29 FD 7F 3F D4 67 1A BC
  can0  10607B01   [8]  BB 2A BD B1 3B 8E F1 1C
  can0  10607B01   [8]  29 FD 7F 3F CA 6C 1A BF
  can0  10607B01   [8]  BB FF C0 B1 3B 2A E7 1F
  can0  10607B01   [8]  29 FD 7F 3F C4 93 1A A3
  can0  10607B01   [8]  BB C6 9E B1 3B 3B F0 03
  can0  10607B01   [8]  27 FD 7F 3F 3C BB 1A A6
  can0  10607B01   [8]  BB 1F 95 B1 3B AA FA 06
  can0  10606F01   [3]  00 00 EB
  can0  10607B01   [8]  29 FD 7F 3F BF C5 1A A9
  can0  0C63FD7C   [8]  00 00 00 00 00 00 00 B6
  can0  10607B01   [8]  27 FD 7F 3F 28 AD 1A AD
  can0  10607B01   [8]  BB F3 BE B1 3B BD 0A 0D
  can0  10606F01   [3]  00 00 EE
  can0  10607B01   [8]  27 FD 7F 3F 9B 94 1A B0
  can0  10607B01   [8]  BB D4 BA B1 3B CF 28 10
  can0  1067D132   [8]  00 00 01 01 00 00 00 21
  can0  1067D132   [8]  80 3F 00 00 80 3F E5 01
  can0  1067D132   [8]  A2 4C 55 00 00 00 00 21
  can0  1067D132   [8]  00 00 00 00 E5 A2 4C 01
  can0  10607B01   [8]  27 FD 7F 3F 58 5B 1A B7
  can0  10607B01   [8]  BB 03 C1 B1 3B CA 28 17
  can0  10607B01   [8]  27 FD 7F 3F C4 14 1A BA
  can0  10607B01   [8]  BB DB AA B1 3B 49 1F 1A
  can0  10607B01   [8]  29 FD 7F 3F AF 27 1A BD
  can0  10607B01   [8]  BB 65 AD B1 3B 91 0B 1D
  can0  10607B01   [8]  00 00 00 00 00 00 00 A1
  can0  10607B01   [8]  00 00 00 00 00 00 00 01
  can0  10607B01   [8]  27 FD 7F 3F 3A 65 1A A4
  can0  10607B01   [8]  BB B9 C1 B1 3B 74 0F 04
  can0  10607B01   [8]  28 FD 7F 3F 7F 58 1A A7
  can0  10606F01   [3]  00 00 FE
  can0  10607B01   [8]  00 00 00 00 00 00 00 A8
  can0  10607B01   [8]  00 00 00 00 00 00 00 AB
  can0  10607B01   [8]  00 00 00 00 00 00 00 0B
  can0  10607B01   [8]  26 FD 7F 3F F3 35 1A AE
  can0  10607B01   [8]  BB 58 D3 B1 3B E0 4B 0E
  can0  10606F01   [3]  00 00 E2
  can0  10607B01   [8]  BB 8B DC B1 3B C6 4E 11
  can0  10606F01   [3]  00 00 E4
  can0  10607B01   [8]  00 00 00 00 00 00 00 B2
  can0  1067D132   [8]  00 80 A8 12 01 0F 27 25
  can0  1067D132   [8]  00 00 F8 4A 23 00 00 05
  can0  1067D132   [8]  00 00 00 00 00 00 00 25
  can0  10607B01   [8]  00 00 00 00 00 00 00 B8
  can0  10606F01   [3]  00 00 EA
  can0  10607B01   [8]  26 FD 7F 3F 0F DD 19 BC
  can0  0C63FD7C   [8]  00 00 00 00 00 00 00 B9
